! NanoVNA-App
! Date: 2020-11-14 10:24:41
! Start: 50kHz Stop: 3.0001GHz Points: 401
! S-Parameter data: F S11
# Hz S RI R 50
!     Frequency           S11 Real           S11 Imag
          50000    2.045877045e-05   -2.612214303e-05
        7550000    2.165342448e-05   -3.323057899e-05
       15050000   -2.026266884e-06   -3.240333172e-06
       22550000    1.930599683e-05    5.812151358e-06
       30050000   -3.575492883e-06    5.689449608e-06
       37550000    2.487446181e-06   -2.135717659e-05
       45050000   -3.615336027e-06    7.577211363e-06
       52550000    1.281264122e-05   -6.125250366e-06
       60050000    9.698123904e-06    1.651872299e-05
       67550000   -6.345158909e-06   -4.062952939e-06
       75050000    9.905954357e-06    5.337351467e-07
       82550000   -6.781250704e-06    7.753027603e-06
       90050000    1.768255606e-05    2.253343700e-05
       97550000   -7.177324733e-06   -1.519915531e-05
      105050000   -2.532463986e-05   -7.586786523e-06
      112550000    5.344831152e-06    1.861507189e-05
      120050000    8.852075553e-06    3.961613402e-06
      127550000    1.677335240e-05    1.639206312e-05
      135050000    6.289483281e-06   -3.655263572e-05
      142550000   -1.259535202e-05    3.640336217e-06
      150050000   -1.024166704e-05   -7.510243449e-07
      157550000    8.131697541e-06    7.653899956e-06
      165050000   -2.135103568e-05   -2.225919161e-06
      172550000   -2.671091352e-06   -1.699343557e-06
      180050000   -1.160777174e-05    9.017385310e-06
      187550000   -1.894679735e-05   -7.532158634e-06
      195050000   -5.182460882e-06    1.390240504e-05
      202550000   -2.317148028e-05    4.570261808e-06
      210050000    1.102976967e-06   -2.033135388e-06
      217550000   -7.117196219e-06   -3.961555194e-06
      225050000    9.158800822e-06   -6.498390576e-06
      232550000    2.634275006e-06   -1.046922989e-05
      240050000   -1.252666698e-05   -3.617606126e-08
      247550000    8.619303117e-06    2.822518582e-06
      255050000   -4.132161848e-06   -6.196321920e-06
      262550000   -2.151587978e-06   -1.035048626e-06
      270050000   -7.741997251e-06   -1.808450907e-05
      277550000   -4.007422831e-06   -1.115558553e-05
      285050000   -2.056214726e-05    7.416965673e-06
      292550000    2.461310942e-07   -7.402850315e-07
      300050000    1.717143459e-05    6.934686098e-06
      307550000    2.904795110e-06   -2.250078251e-05
      315050000   -1.312352833e-05   -6.819289410e-06
      322550000    1.067965059e-06   -6.824207958e-06
      330050000    3.369612386e-06   -5.105888704e-06
      337550000   -1.570882159e-05   -2.573156962e-06
      345050000    2.121145371e-06    1.507104025e-05
      352550000   -4.643545253e-06    1.151690958e-05
      360050000   -1.006244565e-05    3.005552571e-06
      367550000    2.333399607e-06    8.204748156e-06
      375050000    1.137508661e-05   -1.123652328e-05
      382550000    5.102891009e-06    2.313259756e-06
      390050000   -1.121679088e-05    1.020249329e-05
      397550000   -1.870049164e-05   -2.091538045e-05
      405050000    4.484783858e-06    2.471089829e-06
      412550000    4.845409421e-06   -7.250084309e-06
      420050000    1.123262336e-05   -8.906470612e-06
      427550000   -1.485450775e-05    1.424396760e-05
      435050000    2.724322258e-06    1.602500561e-05
      442550000    1.353790867e-05   -1.861748751e-05
      450050000   -6.748567102e-06   -2.399727236e-05
      457550000   -1.794000855e-05   -1.505616819e-05
      465050000    1.872441499e-05   -3.746710718e-06
      472550000    5.592155503e-06   -4.745874321e-06
      480050000    5.746609531e-06    5.789508577e-06
      487550000   -8.014205378e-06   -2.140004653e-06
      495050000   -1.644919394e-06   -9.159557521e-07
      502550000    4.458997864e-06   -7.709313650e-06
      510050000    2.779212082e-06   -1.679407433e-06
      517550000    1.422522473e-05    3.562046913e-06
      525050000   -2.088560723e-05   -1.532986062e-06
      532550000   -1.378500019e-05   -1.627521124e-05
      540050000    4.379631719e-06   -2.051220508e-05
      547550000   -6.545626093e-06   -1.628283644e-05
      555050000   -2.989516361e-06   -1.123509719e-05
      562550000    2.557929838e-05    1.877656905e-05
      570050000   -9.355600923e-06   -1.106873970e-05
      577550000    7.101916708e-06   -2.928776667e-06
      585050000    6.100191968e-06    1.167834853e-05
      592550000    1.306238119e-05   -6.617337931e-06
      600050000   -1.345906639e-06    3.308115993e-06
      607550000   -4.494650057e-06    3.723660484e-06
      615050000   -8.928123862e-06    1.025872189e-05
      622550000   -7.706694305e-06    1.475543831e-05
      630050000    8.389120921e-06   -1.398430322e-05
      637550000    9.803829016e-06    2.317738836e-05
      645050000   -1.124365372e-05   -1.657838584e-05
      652550000   -1.075438922e-05    9.268347640e-06
      660050000    1.347632497e-05   -1.809268724e-06
      667550000    1.782845357e-05   -5.927518941e-06
      675050000    7.388764061e-06    1.310117659e-05
      682550000    2.217799192e-06   -2.463115379e-06
      690050000    5.863170372e-06    8.784962120e-06
      697550000   -1.295341644e-05    7.488357369e-06
      705050000   -1.111428719e-05    9.901414160e-06
      712550000   -1.915730536e-06    1.445910311e-05
      720050000   -1.578009687e-06    1.564444392e-05
      727550000    2.325887908e-05    3.182803630e-05
      735050000   -2.232205588e-06   -4.297937267e-06
      742550000    1.015863381e-05    8.789793355e-06
      750050000    1.105834963e-05    8.364004316e-06
      757550000    3.752589691e-06   -5.354057066e-06
      765050000    3.954715794e-06    1.915229950e-05
      772550000    7.239839761e-06    1.856673043e-05
      780050000   -1.725705806e-05   -6.204878446e-06
      787550000   -2.492743079e-07    2.059765393e-05
      795050000    2.007058356e-06    3.193510929e-05
      802550000   -3.961380571e-06    1.514362521e-05
      810050000    1.248333137e-05    1.995495404e-05
      817550000   -1.729431096e-05    2.226937795e-05
      825050000   -1.005551894e-05    3.359740367e-05
      832550000   -5.609443178e-06    2.667191438e-06
      840050000   -8.503469871e-06    6.315065548e-06
      847550000   -1.228321344e-05   -3.965571523e-06
      855050000   -1.582925324e-05    1.030572457e-05
      862550000   -3.159476910e-05    7.296795957e-06
      870050000    2.745189704e-06    3.142136848e-06
      877550000    1.419481123e-06    5.335605238e-07
      885050000   -1.723886817e-05    1.578719821e-05
      892550000   -2.690122346e-05   -1.372152474e-05
      900050000    2.148182830e-06    5.028297892e-06
      907550000   -2.251582919e-05    9.065697668e-06
      915050000   -1.230172347e-05   -1.751550008e-05
      922550000   -2.477609087e-06   -1.714142854e-05
      930050000   -1.271086512e-05    2.073487849e-05
      937550000   -4.380376777e-05    6.742338883e-06
      945050000   -1.543664257e-05    9.076844435e-06
      952550000   -4.287750926e-05    8.711533155e-06
      960050000   -2.891849726e-05   -6.616843166e-06
      967550000   -4.765653284e-05   -2.439541277e-05
      975050000   -2.422512625e-05   -6.640359061e-06
      982550000   -4.413828719e-05   -7.559836376e-06
      990050000   -4.916361650e-05   -2.527397010e-05
      997550000   -3.271081368e-05   -1.579517266e-05
     1005050000   -2.679423778e-05   -2.584548201e-05
     1012550000   -3.460820881e-05   -3.883376485e-05
     1020050000   -5.046842853e-05   -1.503576641e-05
     1027550000   -3.123513306e-05   -3.912203829e-05
     1035050000   -4.010435077e-05   -2.645005588e-05
     1042550000   -3.120649490e-05   -2.945889719e-05
     1050050000   -5.008501466e-05   -1.819818863e-05
     1057550000   -3.732863115e-05   -2.895249054e-06
     1065050000   -2.406464773e-05   -7.150869351e-06
     1072550000   -4.553413601e-05    6.007350748e-06
     1080050000   -1.917447662e-05   -7.209047908e-06
     1087550000   -3.919162555e-05   -9.817827959e-06
     1095050000   -2.391613089e-05   -1.062502270e-05
     1102550000   -1.145846909e-06   -4.154749331e-05
     1110050000   -1.168169547e-06   -4.261769936e-05
     1117550000   -4.657515092e-06   -5.018146476e-05
     1125050000   -3.333235509e-05   -3.422083682e-05
     1132550000   -2.153235255e-05   -8.844010881e-05
     1140050000   -2.871468314e-05   -6.201295764e-05
     1147550000   -1.234747469e-05   -7.022797945e-05
     1155050000   -6.039044820e-07   -7.340338198e-05
     1162550000   -1.005490776e-05   -6.746294093e-05
     1170050000   -9.866576875e-06   -5.748533295e-05
     1177550000   -1.933562453e-05   -5.449101445e-05
     1185050000   -1.554124174e-05   -7.031744462e-05
     1192550000   -1.407627133e-05   -6.706482964e-05
     1200050000   -1.406908268e-06   -3.894249676e-05
     1207550000   -1.488981070e-05   -6.184968515e-05
     1215050000    3.771914635e-06   -6.740770186e-05
     1222550000    2.997752745e-06   -9.813861107e-05
     1230050000    1.366680954e-05   -7.783615729e-05
     1237550000   -5.400943337e-06   -9.040752775e-05
     1245050000    1.677236287e-05   -8.826761041e-05
     1252550000    2.533409861e-05   -8.243657066e-05
     1260050000    2.825391130e-05   -1.035727910e-04
     1267550000   -1.565393177e-05   -6.601569476e-05
     1275050000   -1.019527554e-05   -1.152506156e-04
     1282550000    1.833791612e-05   -8.237268776e-05
     1290050000    3.130821278e-05   -1.291758963e-04
     1297550000    3.353058128e-05   -1.002616482e-04
     1305050000    5.686402437e-05   -1.118261134e-04
     1312550000    4.819605965e-05   -8.667970542e-05
     1320050000    3.992568236e-05   -9.598815814e-05
     1327550000    8.283567149e-05   -1.058836060e-04
     1335050000    2.564664464e-05   -1.261879806e-04
     1342550000    9.844705346e-05   -1.109592558e-04
     1350050000    8.625487681e-05   -1.485803805e-04
     1357550000    3.434409155e-05   -1.060472277e-04
     1365050000    6.999779725e-05   -1.067909470e-04
     1372550000    9.529330418e-05   -1.250447822e-04
     1380050000    9.893064271e-05   -1.211256895e-04
     1387550000    9.552817210e-05   -1.367191435e-04
     1395050000    8.380948566e-05   -1.678062545e-04
     1402550000    8.231445099e-05   -1.120223023e-04
     1410050000    6.191988359e-05   -1.405810763e-04
     1417550000    6.899173604e-05   -1.473180309e-04
     1425050000    5.869055167e-05   -1.522084058e-04
     1432550000    3.229457070e-05   -1.837075106e-04
     1440050000    2.370245056e-05   -1.444502268e-04
     1447550000    3.521578037e-05   -1.936898334e-04
     1455050000    2.797003253e-05   -1.694621460e-04
     1462550000    8.459668607e-06   -1.538582728e-04
     1470050000   -3.726276918e-05   -1.299539290e-04
     1477550000    3.035907866e-06   -1.109432778e-04
     1485050000    5.490495823e-06   -1.165959984e-04
     1492550000   -2.671324182e-05   -1.132746693e-04
     1500050000   -2.771228901e-05   -7.509230636e-05
     1507550000   -1.777926809e-05   -8.868158329e-05
     1515050000    1.921434887e-06   -7.519777864e-05
     1522550000    8.133152733e-06   -3.654809552e-05
     1530050000   -4.958186764e-06   -6.625446258e-05
     1537550000    6.138550816e-06   -5.791056901e-05
     1545050000   -4.634115612e-06   -7.100778748e-05
     1552550000    4.161734250e-05   -4.394655116e-05
     1560050000    9.387440514e-06   -4.925433313e-05
     1567550000    2.294176375e-05   -5.205246271e-05
     1575050000   -3.668159479e-06   -5.616937415e-05
     1582550000    1.476993202e-05   -3.809694317e-05
     1590050000    1.697134576e-05   -6.705790292e-05
     1597550000    3.793183714e-05   -9.661191143e-06
     1605050000    4.762230674e-06   -3.337467206e-05
     1612550000    4.459591582e-05   -3.060931340e-05
     1620050000    1.890063868e-05   -5.763402442e-06
     1627550000    2.255151048e-05   -2.527463948e-06
     1635050000    1.758767758e-05   -2.649531234e-05
     1642550000   -4.010798875e-07   -1.419094042e-05
     1650050000    2.011522884e-05   -2.097009565e-05
     1657550000    2.147897612e-05   -7.672351785e-06
     1665050000    2.517559915e-05    1.052705920e-05
     1672550000    2.532883082e-05    4.860514309e-06
     1680050000    1.469429117e-05    1.028348925e-05
     1687550000    1.551685273e-05    2.107897308e-05
     1695050000    2.017174847e-05   -7.643626304e-06
     1702550000    2.448493615e-05    1.870526467e-05
     1710050000   -9.054434486e-06    1.293868991e-05
     1717550000    3.441178706e-06    1.668307232e-05
     1725050000   -2.652753028e-05    7.877795724e-06
     1732550000   -1.650105696e-05    2.845458221e-05
     1740050000   -3.499517334e-05    1.686112955e-05
     1747550000   -5.989416968e-05    1.079690992e-05
     1755050000   -4.883942893e-05    1.027958933e-05
     1762550000   -6.976048462e-05    9.035342373e-06
     1770050000   -6.867171032e-05    3.492433461e-05
     1777550000   -8.470067405e-05    1.576717477e-05
     1785050000   -9.862068691e-05    1.287259511e-05
     1792550000   -1.060265349e-04    3.456298145e-05
     1800050000   -1.079019858e-04    1.429161057e-05
     1807550000   -9.560375474e-05    2.716551535e-05
     1815050000   -1.358592417e-04    3.182879300e-05
     1822550000   -1.171072072e-04    3.105745418e-05
     1830050000   -1.517106139e-04    1.775458804e-05
     1837550000   -1.498909842e-04    1.766058267e-05
     1845050000   -1.685130119e-04   -5.775043974e-06
     1852550000   -1.842982892e-04    6.345799193e-06
     1860050000   -1.732437813e-04    1.030176645e-05
     1867550000   -1.964793773e-04   -2.823740942e-06
     1875050000   -2.143116435e-04   -7.529277354e-06
     1882550000   -2.168925421e-04   -3.238965292e-07
     1890050000   -1.999842352e-04   -3.081097384e-05
     1897550000   -2.176744456e-04   -5.561055150e-05
     1905050000   -2.786148107e-04   -1.076564949e-04
     1912550000   -2.505884040e-04   -8.609431097e-05
     1920050000   -2.451056207e-04   -9.948766092e-05
     1927550000   -3.123988281e-04   -1.078883361e-04
     1935050000   -3.357814858e-04   -1.613281493e-04
     1942550000   -3.550473193e-04   -1.596393122e-04
     1950050000   -4.063634260e-04   -2.081815037e-04
     1957550000   -3.990516998e-04   -2.256420848e-04
     1965050000   -4.496880283e-04   -2.468478342e-04
     1972550000   -5.694933352e-04   -2.468360472e-04
     1980050000   -5.990073550e-04   -2.187309146e-04
     1987550000   -7.051485009e-04   -2.468672465e-04
     1995050000   -7.654253859e-04   -1.678979606e-04
     2002550000   -8.412915049e-04   -1.140144595e-04
     2010050000   -8.804870304e-04   -1.533541945e-05
     2017550000   -8.773563895e-04    7.846375229e-05
     2025050000   -8.704814827e-04    1.463562949e-04
     2032550000   -8.153958479e-04    2.292194113e-04
     2040050000   -7.497139159e-04    2.887540031e-04
     2047550000   -7.067050319e-04    3.200989449e-04
     2055050000   -5.918323295e-04    3.306050203e-04
     2062550000   -5.746410461e-04    3.382377326e-04
     2070050000   -4.929770366e-04    3.248604189e-04
     2077550000   -4.751633096e-04    3.010274377e-04
     2085050000   -4.196789814e-04    2.805713448e-04
     2092550000   -3.972437116e-04    2.491767227e-04
     2100050000   -3.700368688e-04    2.177370770e-04
     2107550000   -3.499720478e-04    1.870675478e-04
     2115050000   -3.115466679e-04    1.509738504e-04
     2122550000   -3.140966292e-04    1.530149893e-04
     2130050000   -3.139756736e-04    9.517045692e-05
     2137550000   -2.929302573e-04    1.172713237e-04
     2145050000   -2.690291731e-04    6.603353540e-05
     2152550000   -2.780714713e-04    5.158156273e-05
     2160050000   -2.543572627e-04    1.575052738e-05
     2167550000   -2.468385792e-04   -1.340784365e-05
     2175050000   -2.490571642e-04   -6.919610314e-06
     2182550000   -2.399815712e-04   -2.486418816e-05
     2190050000   -2.189234074e-04   -2.692930866e-05
     2197550000   -2.467781014e-04   -3.756996011e-05
     2205050000   -2.041748376e-04   -4.790432286e-06
     2212550000   -2.515975211e-04   -2.329330891e-05
     2220050000   -2.254444116e-04   -4.627974704e-05
     2227550000   -2.328755218e-04   -3.795788507e-05
     2235050000   -2.112088841e-04   -6.230801228e-05
     2242550000   -2.237643057e-04   -8.960120613e-05
     2250050000   -2.055163495e-04   -9.706630954e-05
     2257550000   -2.042560664e-04   -1.099426590e-04
     2265050000   -1.890535059e-04   -1.109893201e-04
     2272550000   -1.822578197e-04   -1.285326434e-04
     2280050000   -1.676322136e-04   -1.501453517e-04
     2287550000   -1.765777415e-04   -1.598394883e-04
     2295050000   -1.691982325e-04   -1.615726505e-04
     2302550000   -1.767675858e-04   -1.847587992e-04
     2310050000   -1.580052485e-04   -2.196682617e-04
     2317550000   -1.457280887e-04   -2.048279275e-04
     2325050000   -1.207669266e-04   -2.370603906e-04
     2332550000   -1.527309651e-04   -1.847767271e-04
     2340050000   -1.396325533e-04   -2.380275400e-04
     2347550000   -7.441925118e-05   -2.260353358e-04
     2355050000   -1.082897943e-04   -2.401380043e-04
     2362550000   -9.356095688e-05   -2.561956644e-04
     2370050000   -8.958319086e-05   -2.214187989e-04
     2377550000   -9.314753697e-05   -2.228226804e-04
     2385050000   -4.479940981e-05   -2.731617424e-04
     2392550000   -7.938288036e-05   -2.423438418e-04
     2400050000   -3.351506894e-05   -2.504140430e-04
     2407550000   -2.432777546e-05   -2.449380409e-04
     2415050000   -1.307795173e-05   -2.437240328e-04
     2422550000   -2.845074050e-06   -2.472349443e-04
     2430050000    1.453500590e-05   -2.315813326e-04
     2437550000   -3.376626410e-07   -2.471424232e-04
     2445050000    4.262567381e-05   -2.488024766e-04
     2452550000    4.334142432e-05   -2.268785902e-04
     2460050000    9.094030247e-05   -2.412529429e-04
     2467550000    7.584190462e-05   -2.341043146e-04
     2475050000    1.246647735e-04   -2.014425409e-04
     2482550000    1.282370358e-04   -2.144174068e-04
     2490050000    1.363116316e-04   -2.056137891e-04
     2497550000    1.544990228e-04   -2.409011649e-04
     2505050000    1.609916799e-04   -2.049686736e-04
     2512550000    1.449765987e-04   -1.951613522e-04
     2520050000    1.531421731e-04   -2.107904584e-04
     2527550000    1.853749563e-04   -1.873655419e-04
     2535050000    1.672823855e-04   -1.949573052e-04
     2542550000    1.792920229e-04   -1.802334737e-04
     2550050000    1.819730387e-04   -1.960422669e-04
     2557550000    1.970678277e-04   -1.358730951e-04
     2565050000    2.246432123e-04   -1.395554573e-04
     2572550000    2.120715508e-04   -1.300604490e-04
     2580050000    2.201460593e-04   -1.116076019e-04
     2587550000    2.260261390e-04   -9.362533456e-05
     2595050000    2.413310285e-04   -7.864093641e-05
     2602550000    2.446056169e-04   -6.784469588e-05
     2610050000    2.571788209e-04   -6.185393431e-05
     2617550000    2.447794832e-04   -6.051501259e-05
     2625050000    2.576367115e-04   -4.849836114e-05
     2632550000    2.775534231e-04   -1.064548269e-05
     2640050000    2.906522714e-04    1.596289803e-05
     2647550000    2.427700092e-04   -9.342475096e-06
     2655050000    2.705111110e-04    3.287463915e-05
     2662550000    2.678918827e-04    4.063171218e-05
     2670050000    2.909991017e-04    4.460825585e-05
     2677550000    2.390012378e-04    6.965067587e-05
     2685050000    2.602449676e-04    8.336850442e-05
     2692550000    2.418716613e-04    8.890440222e-05
