! NanoVNA-App
! Date: 2020-11-14 10:24:41
! Start: 50kHz Stop: 3.0001GHz Points: 401
! S-Parameter data: F S11
# Hz S RI R 50
!     Frequency           S11 Real           S11 Imag
          50000    9.569246769e-01    4.744878039e-03
        7550000    1.390138507e+00   -7.205455005e-02
       15050000    1.117338538e+00   -9.892911464e-02
       22550000    1.083155394e+00   -9.993728250e-02
       30050000    1.068323374e+00   -1.088348329e-01
       37550000    1.060445428e+00   -1.185883954e-01
       45050000    1.054768562e+00   -1.299064606e-01
       52550000    1.048112154e+00   -1.422268450e-01
       60050000    1.040766358e+00   -1.567447335e-01
       67550000    1.035390377e+00   -1.702338308e-01
       75050000    1.030791283e+00   -1.839401275e-01
       82550000    1.025708318e+00   -1.973833442e-01
       90050000    1.020795584e+00   -2.119381875e-01
       97550000    1.015577435e+00   -2.248712927e-01
      105050000    1.011457443e+00   -2.399337590e-01
      112550000    1.005833268e+00   -2.526039779e-01
      120050000    1.002260089e+00   -2.662230730e-01
      127550000    9.973031878e-01   -2.805587649e-01
      135050000    9.918251634e-01   -2.940962017e-01
      142550000    9.851192236e-01   -3.049101233e-01
      150050000    9.803156257e-01   -3.195452988e-01
      157550000    9.741480350e-01   -3.331016600e-01
      165050000    9.685437679e-01   -3.456150889e-01
      172550000    9.623026252e-01   -3.589935005e-01
      180050000    9.553486705e-01   -3.706841171e-01
      187550000    9.492765069e-01   -3.845205009e-01
      195050000    9.425914884e-01   -3.976024389e-01
      202550000    9.363039136e-01   -4.096999466e-01
      210050000    9.290781617e-01   -4.225994647e-01
      217550000    9.221348763e-01   -4.344477952e-01
      225050000    9.147896171e-01   -4.475959539e-01
      232550000    9.073490500e-01   -4.587687254e-01
      240050000    9.003235698e-01   -4.719599783e-01
      247550000    8.928220272e-01   -4.846005440e-01
      255050000    8.853343725e-01   -4.963472784e-01
      262550000    8.773891926e-01   -5.084594488e-01
      270050000    8.692300320e-01   -5.205408335e-01
      277550000    8.614678979e-01   -5.315675139e-01
      285050000    8.529152274e-01   -5.436574221e-01
      292550000    8.441765308e-01   -5.560536385e-01
      300050000    8.361948133e-01   -5.663474798e-01
      307550000    8.276041150e-01   -5.782928467e-01
      315050000    8.183281422e-01   -5.901653767e-01
      322550000    8.096422553e-01   -6.008219719e-01
      330050000    8.009670973e-01   -6.116579771e-01
      337550000    7.914674878e-01   -6.229986548e-01
      345050000    7.818254828e-01   -6.347079277e-01
      352550000    7.727313638e-01   -6.448875666e-01
      360050000    7.631546259e-01   -6.548398733e-01
      367550000    7.532312274e-01   -6.660961509e-01
      375050000    7.434939146e-01   -6.768769026e-01
      382550000    7.332664728e-01   -6.875339150e-01
      390050000    7.233219743e-01   -6.977215409e-01
      397550000    7.132535577e-01   -7.073705196e-01
      405050000    7.032251358e-01   -7.171468139e-01
      412550000    6.927288175e-01   -7.271231413e-01
      420050000    6.818822622e-01   -7.371893525e-01
      427550000    6.709775329e-01   -7.470121384e-01
      435050000    6.593397856e-01   -7.577129602e-01
      442550000    6.483551264e-01   -7.668417692e-01
      450050000    6.358172297e-01   -7.767876387e-01
      457550000    6.246653795e-01   -7.857353687e-01
      465050000    6.136391163e-01   -7.945031524e-01
      472550000    6.011444926e-01   -8.037533760e-01
      480050000    5.885215998e-01   -8.135232329e-01
      487550000    5.751845837e-01   -8.222830296e-01
      495050000    5.638819337e-01   -8.307615519e-01
      502550000    5.512101054e-01   -8.394008279e-01
      510050000    5.384297967e-01   -8.473699689e-01
      517550000    5.246073604e-01   -8.565256596e-01
      525050000    5.108572245e-01   -8.651384115e-01
      532550000    4.973515868e-01   -8.729171753e-01
      540050000    4.834754169e-01   -8.816682696e-01
      547550000    4.703978300e-01   -8.884113431e-01
      555050000    4.551833868e-01   -8.961744308e-01
      562550000    4.399071932e-01   -9.035012126e-01
      570050000    4.265666008e-01   -9.093866348e-01
      577550000    4.103868008e-01   -9.169310927e-01
      585050000    3.941935599e-01   -9.237079620e-01
      592550000    3.805151880e-01   -9.297670126e-01
      600050000    3.654128611e-01   -9.359174371e-01
      607550000    3.479714096e-01   -9.431734085e-01
      615050000    3.355601430e-01   -9.479121566e-01
      622550000    3.179880977e-01   -9.527500868e-01
      630050000    2.992720306e-01   -9.586727023e-01
      637550000    2.851883471e-01   -9.621427059e-01
      645050000    2.647001743e-01   -9.672248960e-01
      652550000    2.491162866e-01   -9.705860019e-01
      660050000    2.337106466e-01   -9.734738469e-01
      667550000    2.138637751e-01   -9.774489403e-01
      675050000    1.990553141e-01   -9.791015983e-01
      682550000    1.780090183e-01   -9.822106957e-01
      690050000    1.608104259e-01   -9.838098288e-01
      697550000    1.467964798e-01   -9.846154451e-01
      705050000    1.272238791e-01   -9.857317805e-01
      712550000    1.071991399e-01   -9.855743647e-01
      720050000    9.298259765e-02   -9.846822619e-01
      727550000    7.395894825e-02   -9.841508269e-01
      735050000    5.412105471e-02   -9.830194116e-01
      742550000    3.898212686e-02   -9.815457463e-01
      750050000    2.255965956e-02   -9.795691371e-01
      757550000    2.570947167e-03   -9.773102403e-01
      765050000   -1.331248879e-02   -9.746026397e-01
      772550000   -2.870236710e-02   -9.714006186e-01
      780050000   -4.959314689e-02   -9.667134285e-01
      787550000   -6.553363800e-02   -9.626458287e-01
      795050000   -8.414295316e-02   -9.576583505e-01
      802550000   -9.930101037e-02   -9.522415996e-01
      810050000   -1.143050566e-01   -9.472212195e-01
      817550000   -1.325637847e-01   -9.408950806e-01
      825050000   -1.436580122e-01   -9.357539415e-01
      832550000   -1.599605978e-01   -9.282765985e-01
      840050000   -1.711911261e-01   -9.222458601e-01
      847550000   -1.870925874e-01   -9.145395160e-01
      855050000   -1.985555142e-01   -9.079211354e-01
      862550000   -2.153843194e-01   -8.998574615e-01
      870050000   -2.262544483e-01   -8.928278685e-01
      877550000   -2.408666611e-01   -8.844199777e-01
      885050000   -2.519891560e-01   -8.772453666e-01
      892550000   -2.671731412e-01   -8.685481548e-01
      900050000   -2.744514048e-01   -8.619317412e-01
      907550000   -2.896716297e-01   -8.523442745e-01
      915050000   -2.985475063e-01   -8.449608684e-01
      922550000   -3.094492555e-01   -8.376852870e-01
      930050000   -3.185233176e-01   -8.297299147e-01
      937550000   -3.310046792e-01   -8.210677505e-01
      945050000   -3.390226066e-01   -8.137457371e-01
      952550000   -3.497431874e-01   -8.055548072e-01
      960050000   -3.599766791e-01   -7.973067760e-01
      967550000   -3.684474528e-01   -7.895032763e-01
      975050000   -3.807447553e-01   -7.806386948e-01
      982550000   -3.881198764e-01   -7.736921310e-01
      990050000   -3.974870145e-01   -7.652667761e-01
      997550000   -4.051939845e-01   -7.590031028e-01
     1005050000   -4.160499275e-01   -7.493094802e-01
     1012550000   -4.232302606e-01   -7.429398894e-01
     1020050000   -4.339610934e-01   -7.336194515e-01
     1027550000   -4.398780763e-01   -7.283185124e-01
     1035050000   -4.525962770e-01   -7.177523971e-01
     1042550000   -4.579677880e-01   -7.117807865e-01
     1050050000   -4.686957896e-01   -7.028296590e-01
     1057550000   -4.740366936e-01   -6.975023150e-01
     1065050000   -4.840107858e-01   -6.877933741e-01
     1072550000   -4.889688492e-01   -6.819838285e-01
     1080050000   -5.011473298e-01   -6.715845466e-01
     1087550000   -5.065802336e-01   -6.656064987e-01
     1095050000   -5.154669285e-01   -6.574932337e-01
     1102550000   -5.271935463e-01   -6.462812424e-01
     1110050000   -5.311155915e-01   -6.427103877e-01
     1117550000   -5.407624841e-01   -6.328144073e-01
     1125050000   -5.508854985e-01   -6.227413416e-01
     1132550000   -5.539502501e-01   -6.190875173e-01
     1140050000   -5.634988546e-01   -6.093686223e-01
     1147550000   -5.742633939e-01   -5.977948308e-01
     1155050000   -5.780859590e-01   -5.930010676e-01
     1162550000   -5.870949626e-01   -5.835610628e-01
     1170050000   -5.958428383e-01   -5.728166699e-01
     1177550000   -6.010116339e-01   -5.666632056e-01
     1185050000   -6.118710041e-01   -5.545263886e-01
     1192550000   -6.188654900e-01   -5.459489226e-01
     1200050000   -6.241645217e-01   -5.398435593e-01
     1207550000   -6.353492737e-01   -5.266911387e-01
     1215050000   -6.416783333e-01   -5.184971094e-01
     1222550000   -6.459348798e-01   -5.124118328e-01
     1230050000   -6.535100937e-01   -5.026771426e-01
     1237550000   -6.632698178e-01   -4.900299311e-01
     1245050000   -6.676853895e-01   -4.861512184e-01
     1252550000   -6.766086221e-01   -4.748795629e-01
     1260050000   -6.844844222e-01   -4.648576677e-01
     1267550000   -6.904504299e-01   -4.550022781e-01
     1275050000   -6.968734860e-01   -4.432277381e-01
     1282550000   -7.037416697e-01   -4.305111468e-01
     1290050000   -7.105681300e-01   -4.210101366e-01
     1297550000   -7.157410979e-01   -4.130871296e-01
     1305050000   -7.245298028e-01   -3.992979527e-01
     1312550000   -7.311664224e-01   -3.893566728e-01
     1320050000   -7.357417345e-01   -3.806561828e-01
     1327550000   -7.427678108e-01   -3.648350835e-01
     1335050000   -7.479012609e-01   -3.556779623e-01
     1342550000   -7.524259090e-01   -3.481286168e-01
     1350050000   -7.594192028e-01   -3.356223702e-01
     1357550000   -7.666543722e-01   -3.215603530e-01
     1365050000   -7.714896202e-01   -3.100411594e-01
     1372550000   -7.753992081e-01   -3.019188941e-01
     1380050000   -7.817718387e-01   -2.873769701e-01
     1387550000   -7.880742550e-01   -2.755561471e-01
     1395050000   -7.908494473e-01   -2.690075636e-01
     1402550000   -7.976110578e-01   -2.509875596e-01
     1410050000   -8.025062680e-01   -2.366369069e-01
     1417550000   -8.072453737e-01   -2.239981443e-01
     1425050000   -8.123071790e-01   -2.115445286e-01
     1432550000   -8.170779943e-01   -1.997030377e-01
     1440050000   -8.202469945e-01   -1.883555353e-01
     1447550000   -8.255274296e-01   -1.688411236e-01
     1455050000   -8.284679651e-01   -1.609790027e-01
     1462550000   -8.316941857e-01   -1.475254744e-01
     1470050000   -8.357014060e-01   -1.294327676e-01
     1477550000   -8.380690217e-01   -1.207876503e-01
     1485050000   -8.411097527e-01   -1.037826240e-01
     1492550000   -8.441627622e-01   -8.813252300e-02
     1500050000   -8.468221426e-01   -7.543724030e-02
     1507550000   -8.488318920e-01   -5.387133360e-02
     1515050000   -8.511584997e-01   -4.246156663e-02
     1522550000   -8.526538610e-01   -2.986507677e-02
     1530050000   -8.545370698e-01   -1.276603807e-02
     1537550000   -8.554247618e-01    2.871525940e-03
     1545050000   -8.560130596e-01    1.268409565e-02
     1552550000   -8.563055992e-01    3.272507712e-02
     1560050000   -8.551335931e-01    5.061684176e-02
     1567550000   -8.540603518e-01    6.413885206e-02
     1575050000   -8.532269597e-01    7.872435451e-02
     1582550000   -8.505765200e-01    1.001672149e-01
     1590050000   -8.489757776e-01    1.136966124e-01
     1597550000   -8.470652699e-01    1.273866594e-01
     1605050000   -8.439460993e-01    1.476737261e-01
     1612550000   -8.416793346e-01    1.604963690e-01
     1620050000   -8.390923738e-01    1.721221060e-01
     1627550000   -8.336070776e-01    1.923445016e-01
     1635050000   -8.291603327e-01    2.081990242e-01
     1642550000   -8.242344260e-01    2.235098183e-01
     1650050000   -8.202758431e-01    2.352276146e-01
     1657550000   -8.126988411e-01    2.559820414e-01
     1665050000   -8.091749549e-01    2.649970651e-01
     1672550000   -8.016877174e-01    2.828028798e-01
     1680050000   -7.961093783e-01    2.919643521e-01
     1687550000   -7.859988213e-01    3.126754761e-01
     1695050000   -7.813067436e-01    3.213376403e-01
     1702550000   -7.720440626e-01    3.369071186e-01
     1710050000   -7.658646107e-01    3.460104465e-01
     1717550000   -7.541292906e-01    3.644109368e-01
     1725050000   -7.480130792e-01    3.727246225e-01
     1732550000   -7.396886349e-01    3.847090602e-01
     1740050000   -7.320956588e-01    3.938452303e-01
     1747550000   -7.184621692e-01    4.118522406e-01
     1755050000   -7.096328735e-01    4.221126735e-01
     1762550000   -6.996806264e-01    4.338853657e-01
     1770050000   -6.941853762e-01    4.385169446e-01
     1777550000   -6.803855300e-01    4.543361664e-01
     1785050000   -6.737713814e-01    4.607316554e-01
     1792550000   -6.634663343e-01    4.706286788e-01
     1800050000   -6.581241488e-01    4.743148088e-01
     1807550000   -6.437011361e-01    4.904054105e-01
     1815050000   -6.351712346e-01    4.966905713e-01
     1822550000   -6.260527968e-01    5.050987601e-01
     1830050000   -6.147400737e-01    5.128991604e-01
     1837550000   -6.073619127e-01    5.194143057e-01
     1845050000   -5.996681452e-01    5.260229707e-01
     1852550000   -5.887134671e-01    5.364014506e-01
     1860050000   -5.825649500e-01    5.403977036e-01
     1867550000   -5.721228719e-01    5.489561558e-01
     1875050000   -5.636689663e-01    5.562906861e-01
     1882550000   -5.539325476e-01    5.637128949e-01
     1890050000   -5.468916893e-01    5.698909760e-01
     1897550000   -5.351643562e-01    5.798023343e-01
     1905050000   -5.304418802e-01    5.822966099e-01
     1912550000   -5.208409429e-01    5.912202001e-01
     1920050000   -5.125008821e-01    5.970858335e-01
     1927550000   -5.012843013e-01    6.060413718e-01
     1935050000   -4.955002964e-01    6.092330813e-01
     1942550000   -4.885285497e-01    6.169296503e-01
     1950050000   -4.771716893e-01    6.255466342e-01
     1957550000   -4.695194066e-01    6.311261058e-01
     1965050000   -4.628711343e-01    6.353650093e-01
     1972550000   -4.522762299e-01    6.420488954e-01
     1980050000   -4.420440495e-01    6.508778930e-01
     1987550000   -4.360828400e-01    6.546283364e-01
     1995050000   -4.244999886e-01    6.622521877e-01
     2002550000   -4.185659289e-01    6.673924327e-01
     2010050000   -4.031981528e-01    6.767334938e-01
     2017550000   -3.981539011e-01    6.801751256e-01
     2025050000   -3.888020813e-01    6.869726777e-01
     2032550000   -3.800141513e-01    6.930977702e-01
     2040050000   -3.667268455e-01    7.016567588e-01
     2047550000   -3.608844578e-01    7.054995298e-01
     2055050000   -3.481390774e-01    7.123464942e-01
     2062550000   -3.375093937e-01    7.189502120e-01
     2070050000   -3.288139701e-01    7.250884175e-01
     2077550000   -3.227522671e-01    7.301635146e-01
     2085050000   -3.100328147e-01    7.372190952e-01
     2092550000   -3.048290610e-01    7.424049377e-01
     2100050000   -2.845558226e-01    7.508494258e-01
     2107550000   -2.781998515e-01    7.554768324e-01
     2115050000   -2.730331719e-01    7.592279315e-01
     2122550000   -2.594508529e-01    7.666608095e-01
     2130050000   -2.468030900e-01    7.734847069e-01
     2137550000   -2.344574481e-01    7.793263197e-01
     2145050000   -2.262571901e-01    7.833040357e-01
     2152550000   -2.192335427e-01    7.887235880e-01
     2160050000   -2.027658075e-01    7.954878211e-01
     2167550000   -1.918657422e-01    7.998591065e-01
     2175050000   -1.802510321e-01    8.050829172e-01
     2182550000   -1.672184467e-01    8.102265596e-01
     2190050000   -1.561237276e-01    8.148580194e-01
     2197550000   -1.416114420e-01    8.203647733e-01
     2205050000   -1.310907304e-01    8.236578703e-01
     2212550000   -1.159616709e-01    8.280406594e-01
     2220050000   -1.126182750e-01    8.310389519e-01
     2227550000   -9.459920228e-02    8.353026509e-01
     2235050000   -8.362948895e-02    8.393355012e-01
     2242550000   -6.265706569e-02    8.435735106e-01
     2250050000   -5.098883808e-02    8.475558162e-01
     2257550000   -3.972364590e-02    8.509100676e-01
     2265050000   -3.123983927e-02    8.539521694e-01
     2272550000   -1.148847491e-02    8.574514389e-01
     2280050000   -2.414358780e-03    8.606768847e-01
     2287550000    1.943409629e-02    8.639862537e-01
     2295050000    3.085630201e-02    8.657724857e-01
     2302550000    4.828746989e-02    8.685096502e-01
     2310050000    5.440229923e-02    8.714118004e-01
     2317550000    7.291419059e-02    8.730390072e-01
     2325050000    8.452075720e-02    8.751537800e-01
     2332550000    1.093881279e-01    8.756257892e-01
     2340050000    1.194565743e-01    8.773630261e-01
     2347550000    1.342960000e-01    8.785508275e-01
     2355050000    1.462021768e-01    8.798759580e-01
     2362550000    1.628420204e-01    8.792213798e-01
     2370050000    1.847792417e-01    8.783778548e-01
     2377550000    1.975586563e-01    8.793255091e-01
     2385050000    2.156959325e-01    8.779730201e-01
     2392550000    2.368140966e-01    8.757169843e-01
     2400050000    2.491116524e-01    8.749254346e-01
     2407550000    2.635088563e-01    8.740677834e-01
     2415050000    2.887152135e-01    8.692806959e-01
     2422550000    3.039559126e-01    8.664619923e-01
     2430050000    3.191598952e-01    8.639038205e-01
     2437550000    3.419759870e-01    8.579306006e-01
     2445050000    3.498079181e-01    8.570260406e-01
     2452550000    3.718236685e-01    8.506595492e-01
     2460050000    3.838598728e-01    8.467076421e-01
     2467550000    4.095443487e-01    8.372120857e-01
     2475050000    4.225839674e-01    8.334008455e-01
     2482550000    4.380957782e-01    8.257823586e-01
     2490050000    4.482823908e-01    8.224655390e-01
     2497550000    4.699135125e-01    8.113371730e-01
     2505050000    4.870405495e-01    8.016612530e-01
     2512550000    5.082038641e-01    7.904798388e-01
     2520050000    5.197803974e-01    7.833650708e-01
     2527550000    5.374488831e-01    7.725123763e-01
     2535050000    5.454745889e-01    7.678770423e-01
     2542550000    5.607912540e-01    7.570846677e-01
     2550050000    5.782479048e-01    7.437989116e-01
     2557550000    5.980015397e-01    7.284718156e-01
     2565050000    6.065120101e-01    7.221712470e-01
     2572550000    6.229569912e-01    7.083575726e-01
     2580050000    6.348562241e-01    6.962293983e-01
     2587550000    6.422733068e-01    6.903941631e-01
     2595050000    6.556159258e-01    6.769544482e-01
     2602550000    6.670358777e-01    6.655907631e-01
     2610050000    6.896272898e-01    6.420460939e-01
     2617550000    6.905227304e-01    6.378396153e-01
     2625050000    7.051685452e-01    6.217984557e-01
     2632550000    7.138665915e-01    6.118413806e-01
     2640050000    7.233950496e-01    5.991000533e-01
     2647550000    7.321609259e-01    5.868970156e-01
     2655050000    7.452924252e-01    5.690755844e-01
     2662550000    7.543351650e-01    5.578347445e-01
     2670050000    7.615992427e-01    5.459268093e-01
     2677550000    7.716253996e-01    5.313693881e-01
     2685050000    7.757019401e-01    5.239433646e-01
     2692550000    7.856495380e-01    5.079648495e-01
