! NanoVNA-App
! Date: 2020-11-14 10:24:41
! Start: 50kHz Stop: 3.0001GHz Points: 401
! S-Parameter data: F S11
# Hz S RI R 50
!     Frequency           S11 Real           S11 Imag
          50000    2.365689911e-02   -5.004125647e-03
        7550000    3.277275339e-02   -1.180729014e-03
       15050000    2.632763609e-02   -1.330487547e-03
       22550000    2.567076124e-02   -4.647949245e-04
       30050000    2.571780980e-02    5.989149213e-05
       37550000    2.793012746e-02    1.191075426e-03
       45050000    2.580927685e-02    1.342294156e-03
       52550000    2.608286403e-02    1.649844460e-03
       60050000    2.610807493e-02    6.525280187e-04
       67550000    2.622994222e-02    7.875869633e-04
       75050000    2.629573829e-02    8.138399571e-04
       82550000    2.627729997e-02    8.964600274e-04
       90050000    2.587196790e-02    1.039296621e-03
       97550000    2.584945597e-02    1.134482678e-03
      105050000    2.676869184e-02    6.089223898e-04
      112550000    2.654338814e-02    9.477548301e-04
      120050000    2.732935548e-02    7.885767845e-04
      127550000    2.790098824e-02    7.510393625e-04
      135050000    2.807443216e-02    7.836948498e-04
      142550000    2.861496806e-02    9.974160930e-04
      150050000    2.888964675e-02    8.672112599e-04
      157550000    2.909138426e-02    5.515939556e-04
      165050000    2.917452343e-02    5.996638210e-04
      172550000    2.929979376e-02    4.711737274e-04
      180050000    2.947664820e-02    5.564840976e-04
      187550000    2.996538766e-02    2.745715028e-04
      195050000    3.011452220e-02    2.285121300e-04
      202550000    3.022907674e-02    8.465143037e-05
      210050000    3.004144877e-02   -1.488913258e-04
      217550000    2.999706566e-02   -3.203112865e-04
      225050000    3.022718988e-02   -4.610797041e-04
      232550000    3.060747311e-02   -4.815485154e-04
      240050000    3.111968935e-02   -5.722842761e-04
      247550000    3.137555718e-02   -7.866336964e-04
      255050000    3.143212572e-02   -1.041517360e-03
      262550000    3.125288710e-02   -1.461662585e-03
      270050000    3.130114824e-02   -1.726476476e-03
      277550000    3.149754182e-02   -1.924989745e-03
      285050000    3.152571619e-02   -2.156059723e-03
      292550000    3.150369227e-02   -2.814525273e-03
      300050000    3.131694719e-02   -2.421961166e-03
      307550000    3.146061301e-02   -2.459507436e-03
      315050000    3.168768063e-02   -2.905125730e-03
      322550000    3.175370768e-02   -3.090139246e-03
      330050000    3.205437586e-02   -3.308097599e-03
      337550000    3.230121359e-02   -3.715986153e-03
      345050000    3.241159022e-02   -3.912233748e-03
      352550000    3.243763000e-02   -4.249778576e-03
      360050000    3.249039128e-02   -4.515329376e-03
      367550000    3.265703097e-02   -4.789605271e-03
      375050000    3.274721652e-02   -4.939156119e-03
      382550000    3.297588602e-02   -5.417381413e-03
      390050000    3.328937292e-02   -5.966158584e-03
      397550000    3.361919522e-02   -6.042594090e-03
      405050000    3.380824253e-02   -6.124889012e-03
      412550000    3.405532613e-02   -6.512784399e-03
      420050000    3.404157609e-02   -6.902966183e-03
      427550000    3.387150168e-02   -6.919449195e-03
      435050000    3.365930915e-02   -7.497501560e-03
      442550000    3.378774971e-02   -7.890859619e-03
      450050000    3.397980332e-02   -7.932786830e-03
      457550000    3.399185464e-02   -8.311389014e-03
      465050000    3.399968147e-02   -8.719196543e-03
      472550000    3.462867811e-02   -8.913975209e-03
      480050000    3.504845127e-02   -9.868022986e-03
      487550000    3.521176055e-02   -1.021624170e-02
      495050000    3.543227166e-02   -1.040355209e-02
      502550000    3.551477566e-02   -1.041190326e-02
      510050000    3.577487171e-02   -1.076229941e-02
      517550000    3.550380468e-02   -1.126645785e-02
      525050000    3.542198986e-02   -1.172633003e-02
      532550000    3.499178961e-02   -1.131223328e-02
      540050000    3.490611166e-02   -1.171711460e-02
      547550000    3.481442481e-02   -1.225112192e-02
      555050000    3.495748341e-02   -1.256588567e-02
      562550000    3.516952321e-02   -1.292159967e-02
      570050000    3.673567623e-02   -1.322166529e-02
      577550000    3.724031150e-02   -1.378982700e-02
      585050000    3.708778694e-02   -1.410091575e-02
      592550000    3.690076992e-02   -1.424768846e-02
      600050000    3.544141352e-02   -1.436835062e-02
      607550000    3.528093919e-02   -1.505787671e-02
      615050000    3.541382402e-02   -1.512037590e-02
      622550000    3.518154845e-02   -1.506644208e-02
      630050000    3.541974723e-02   -1.577049680e-02
      637550000    3.566052020e-02   -1.644885726e-02
      645050000    3.593132645e-02   -1.696569845e-02
      652550000    3.594730794e-02   -1.722331531e-02
      660050000    3.594991937e-02   -1.765398309e-02
      667550000    3.595503047e-02   -1.794399694e-02
      675050000    3.601219878e-02   -1.805233769e-02
      682550000    3.567473590e-02   -1.851210929e-02
      690050000    3.580016643e-02   -1.880748011e-02
      697550000    3.578539193e-02   -1.891860552e-02
      705050000    3.540845588e-02   -1.946514100e-02
      712550000    3.532625362e-02   -1.935409009e-02
      720050000    3.528895229e-02   -1.948645152e-02
      727550000    3.524188697e-02   -1.979176700e-02
      735050000    3.521894291e-02   -2.012059465e-02
      742550000    3.482856229e-02   -2.021592483e-02
      750050000    3.469705209e-02   -2.058077976e-02
      757550000    3.458258510e-02   -2.056157589e-02
      765050000    3.440614417e-02   -2.126433514e-02
      772550000    3.530744463e-02   -2.158131450e-02
      780050000    3.601844609e-02   -2.171071619e-02
      787550000    3.563592955e-02   -2.190165594e-02
      795050000    3.453542665e-02   -2.212500386e-02
      802550000    3.432600945e-02   -2.225869149e-02
      810050000    3.501602635e-02   -2.239917777e-02
      817550000    3.481129184e-02   -2.286725678e-02
      825050000    3.432988003e-02   -2.335921489e-02
      832550000    3.384838626e-02   -2.381992713e-02
      840050000    3.505702317e-02   -2.365124598e-02
      847550000    3.399376571e-02   -2.431471087e-02
      855050000    3.431329876e-02   -2.493538894e-02
      862550000    3.385435790e-02   -2.504352480e-02
      870050000    3.390879184e-02   -2.523955703e-02
      877550000    3.365430236e-02   -2.531773411e-02
      885050000    3.349412233e-02   -2.566423453e-02
      892550000    3.346706927e-02   -2.568364143e-02
      900050000    3.346174583e-02   -2.608004026e-02
      907550000    3.352319822e-02   -2.660458162e-02
      915050000    3.324835002e-02   -2.709558047e-02
      922550000    3.351894394e-02   -2.728012949e-02
      930050000    3.359477222e-02   -2.740629017e-02
      937550000    3.330059722e-02   -2.786653489e-02
      945050000    3.352589533e-02   -2.821108885e-02
      952550000    3.334943950e-02   -2.830003202e-02
      960050000    3.336423635e-02   -2.871740796e-02
      967550000    3.360058740e-02   -2.870047465e-02
      975050000    3.345298395e-02   -2.926118858e-02
      982550000    3.322377428e-02   -2.948242426e-02
      990050000    3.328168020e-02   -2.972824872e-02
      997550000    3.337003663e-02   -3.018588945e-02
     1005050000    3.309904784e-02   -3.045069054e-02
     1012550000    3.323542699e-02   -3.101640567e-02
     1020050000    3.289838135e-02   -3.146038204e-02
     1027550000    3.324465454e-02   -3.135629371e-02
     1035050000    3.241464496e-02   -3.146461397e-02
     1042550000    3.188655898e-02   -3.211896494e-02
     1050050000    3.181487694e-02   -3.214308992e-02
     1057550000    3.233654797e-02   -3.227774426e-02
     1065050000    3.273575753e-02   -3.264466673e-02
     1072550000    3.268991038e-02   -3.324586526e-02
     1080050000    3.263796493e-02   -3.323199600e-02
     1087550000    3.249244392e-02   -3.374974057e-02
     1095050000    3.228487074e-02   -3.366443142e-02
     1102550000    3.218866885e-02   -3.443475068e-02
     1110050000    3.199539334e-02   -3.504450619e-02
     1117550000    3.167498484e-02   -3.495952487e-02
     1125050000    3.143884987e-02   -3.558805957e-02
     1132550000    3.182081878e-02   -3.570664302e-02
     1140050000    3.156600893e-02   -3.667915985e-02
     1147550000    3.159280866e-02   -3.684927523e-02
     1155050000    3.185458109e-02   -3.705560043e-02
     1162550000    3.177491575e-02   -3.767596930e-02
     1170050000    3.185515478e-02   -3.773988411e-02
     1177550000    3.154855222e-02   -3.800348192e-02
     1185050000    3.115483001e-02   -3.870825097e-02
     1192550000    3.089330345e-02   -3.912866116e-02
     1200050000    3.095794469e-02   -3.940600529e-02
     1207550000    3.032370098e-02   -4.001619667e-02
     1215050000    2.982150204e-02   -4.000253975e-02
     1222550000    2.995641530e-02   -4.049323499e-02
     1230050000    2.969182655e-02   -4.076758027e-02
     1237550000    2.981372923e-02   -4.168001562e-02
     1245050000    3.147191182e-02   -4.093937203e-02
     1252550000    3.153322637e-02   -4.119901359e-02
     1260050000    3.108638152e-02   -4.289095104e-02
     1267550000    3.027698584e-02   -4.379858449e-02
     1275050000    2.872852795e-02   -4.396000132e-02
     1282550000    2.833169326e-02   -4.445752501e-02
     1290050000    2.851847932e-02   -4.367621616e-02
     1297550000    2.938984334e-02   -4.521772265e-02
     1305050000    2.837922238e-02   -4.547194764e-02
     1312550000    2.802913636e-02   -4.585998505e-02
     1320050000    2.762266062e-02   -4.632995278e-02
     1327550000    2.763045952e-02   -4.657686502e-02
     1335050000    2.750841528e-02   -4.704692587e-02
     1342550000    2.758543380e-02   -4.699244723e-02
     1350050000    2.732223086e-02   -4.784778878e-02
     1357550000    2.775430679e-02   -4.862145334e-02
     1365050000    2.740543336e-02   -4.894661158e-02
     1372550000    2.625095658e-02   -4.973127693e-02
     1380050000    2.505863644e-02   -4.896900430e-02
     1387550000    2.746283449e-02   -4.886665940e-02
     1395050000    2.721624076e-02   -5.094549060e-02
     1402550000    2.395067364e-02   -5.187864974e-02
     1410050000    2.448820695e-02   -5.183390900e-02
     1417550000    2.575236373e-02   -5.271527171e-02
     1425050000    2.517954446e-02   -5.315315723e-02
     1432550000    2.333945036e-02   -5.321059376e-02
     1440050000    2.327071317e-02   -5.324612558e-02
     1447550000    2.225304581e-02   -5.340695754e-02
     1455050000    2.264544368e-02   -5.337420106e-02
     1462550000    2.194710448e-02   -5.405487865e-02
     1470050000    2.167816646e-02   -5.399171636e-02
     1477550000    2.141495049e-02   -5.459723994e-02
     1485050000    2.070187032e-02   -5.510142818e-02
     1492550000    2.099048346e-02   -5.544945598e-02
     1500050000    2.098886669e-02   -5.631335080e-02
     1507550000    1.982268319e-02   -5.593126267e-02
     1515050000    1.959776878e-02   -5.687385798e-02
     1522550000    1.904393546e-02   -5.740148574e-02
     1530050000    1.868174784e-02   -5.790896714e-02
     1537550000    1.859850436e-02   -5.898850039e-02
     1545050000    1.910241134e-02   -5.954139307e-02
     1552550000    1.817135699e-02   -6.015632302e-02
     1560050000    1.794780232e-02   -6.064533070e-02
     1567550000    1.747497171e-02   -6.045982614e-02
     1575050000    1.722129807e-02   -6.043682247e-02
     1582550000    1.590223052e-02   -6.032123789e-02
     1590050000    1.589032821e-02   -6.100313738e-02
     1597550000    1.554438379e-02   -6.109907851e-02
     1605050000    1.444385201e-02   -6.100247428e-02
     1612550000    1.402771287e-02   -6.163206324e-02
     1620050000    1.425142214e-02   -6.275004148e-02
     1627550000    1.322944090e-02   -6.244105101e-02
     1635050000    1.250351872e-02   -6.334474683e-02
     1642550000    1.186843775e-02   -6.336518377e-02
     1650050000    1.157081407e-02   -6.473789364e-02
     1657550000    1.031286363e-02   -6.429420412e-02
     1665050000    1.023890823e-02   -6.522448361e-02
     1672550000    9.574647062e-03   -6.525235623e-02
     1680050000    9.677482769e-03   -6.548028439e-02
     1687550000    8.746692911e-03   -6.597360224e-02
     1695050000    7.786597125e-03   -6.561244279e-02
     1702550000    7.608835585e-03   -6.613775343e-02
     1710050000    8.097674698e-03   -6.687124074e-02
     1717550000    6.340719759e-03   -6.634111702e-02
     1725050000    6.443490274e-03   -6.729489565e-02
     1732550000    5.185679533e-03   -6.732720137e-02
     1740050000    5.358296447e-03   -6.795526296e-02
     1747550000    4.034567159e-03   -6.822728366e-02
     1755050000    3.413848113e-03   -6.804101914e-02
     1762550000    2.483258024e-03   -6.758844107e-02
     1770050000    2.634034958e-03   -6.783860177e-02
     1777550000    1.300633419e-03   -6.794007123e-02
     1785050000    1.241303748e-03   -6.818515062e-02
     1792550000    1.138096210e-03   -6.852871180e-02
     1800050000    3.532685805e-04   -6.798437983e-02
     1807550000   -2.007365692e-04   -6.864853203e-02
     1815050000   -6.499076262e-04   -6.868585944e-02
     1822550000   -1.103791408e-03   -6.848622859e-02
     1830050000   -1.453832723e-03   -6.843943149e-02
     1837550000   -2.211618936e-03   -6.866700947e-02
     1845050000   -2.350647235e-03   -6.839932501e-02
     1852550000   -3.179831896e-03   -6.891689450e-02
     1860050000   -3.218409372e-03   -6.905508041e-02
     1867550000   -3.804672742e-03   -6.906208396e-02
     1875050000   -4.721722566e-03   -6.901966035e-02
     1882550000   -4.330599681e-03   -6.952524930e-02
     1890050000   -4.902381450e-03   -6.996642053e-02
     1897550000   -6.556792650e-03   -6.864997745e-02
     1905050000   -6.195650436e-03   -6.961131096e-02
     1912550000   -6.396827754e-03   -7.006981224e-02
     1920050000   -7.121053059e-03   -7.019751519e-02
     1927550000   -8.164378814e-03   -6.984439492e-02
     1935050000   -7.952317595e-03   -7.029060274e-02
     1942550000   -8.359277621e-03   -7.032909244e-02
     1950050000   -9.563708678e-03   -7.046462595e-02
     1957550000   -9.419823065e-03   -7.105221599e-02
     1965050000   -1.013847068e-02   -7.115250081e-02
     1972550000   -1.024297345e-02   -7.200092077e-02
     1980050000   -1.126919128e-02   -7.201600075e-02
     1987550000   -1.158100087e-02   -7.270918787e-02
     1995050000   -1.150087547e-02   -7.335636020e-02
     2002550000   -1.315703988e-02   -7.303178310e-02
     2010050000   -1.418944634e-02   -7.319959253e-02
     2017550000   -1.421327330e-02   -7.348918915e-02
     2025050000   -1.534289028e-02   -7.326305658e-02
     2032550000   -1.550404355e-02   -7.339096814e-02
     2040050000   -1.616993919e-02   -7.327382267e-02
     2047550000   -1.728839986e-02   -7.302127033e-02
     2055050000   -1.728395745e-02   -7.321488857e-02
     2062550000   -1.860820130e-02   -7.247327268e-02
     2070050000   -1.887317188e-02   -7.253228128e-02
     2077550000   -1.828360558e-02   -7.278940082e-02
     2085050000   -1.951714419e-02   -7.253417373e-02
     2092550000   -1.968439668e-02   -7.259158790e-02
     2100050000   -2.046518587e-02   -7.201538980e-02
     2107550000   -2.065456100e-02   -7.206185162e-02
     2115050000   -2.104549669e-02   -7.171785831e-02
     2122550000   -2.137179673e-02   -7.162247598e-02
     2130050000   -2.188745700e-02   -7.128876448e-02
     2137550000   -2.178704552e-02   -7.134572417e-02
     2145050000   -2.235757932e-02   -7.144008577e-02
     2152550000   -2.172152884e-02   -7.188506424e-02
     2160050000   -2.325142361e-02   -7.167448848e-02
     2167550000   -2.372297458e-02   -7.186231762e-02
     2175050000   -2.333212458e-02   -7.235687226e-02
     2182550000   -2.496159449e-02   -7.230322808e-02
     2190050000   -2.522652782e-02   -7.256346941e-02
     2197550000   -2.614673413e-02   -7.281842083e-02
     2205050000   -2.639569901e-02   -7.289689779e-02
     2212550000   -2.709421702e-02   -7.305888832e-02
     2220050000   -2.673295699e-02   -7.333698124e-02
     2227550000   -2.842766792e-02   -7.282444835e-02
     2235050000   -2.989367582e-02   -7.249259204e-02
     2242550000   -2.932309918e-02   -7.278018445e-02
     2250050000   -2.993641235e-02   -7.254013419e-02
     2257550000   -2.976109274e-02   -7.275120914e-02
     2265050000   -3.039402142e-02   -7.280449569e-02
     2272550000   -3.155158088e-02   -7.269783318e-02
     2280050000   -3.184993938e-02   -7.308492810e-02
     2287550000   -3.313744068e-02   -7.273016870e-02
     2295050000   -3.284382075e-02   -7.335431874e-02
     2302550000   -3.346190229e-02   -7.334653288e-02
     2310050000   -3.420227021e-02   -7.374359667e-02
     2317550000   -3.443268314e-02   -7.372689992e-02
     2325050000   -3.519742191e-02   -7.398416847e-02
     2332550000   -3.701879829e-02   -7.347730547e-02
     2340050000   -3.745752946e-02   -7.431150228e-02
     2347550000   -3.690860048e-02   -7.421910763e-02
     2355050000   -3.732719272e-02   -7.443455607e-02
     2362550000   -3.777949885e-02   -7.459823787e-02
     2370050000   -3.999183327e-02   -7.386043668e-02
     2377550000   -3.900903091e-02   -7.446622103e-02
     2385050000   -4.057547078e-02   -7.380930334e-02
     2392550000   -4.147627950e-02   -7.325483114e-02
     2400050000   -4.059096426e-02   -7.325277478e-02
     2407550000   -4.108403996e-02   -7.306640595e-02
     2415050000   -4.287100956e-02   -7.271219045e-02
     2422550000   -4.406519607e-02   -7.234293967e-02
     2430050000   -4.341619462e-02   -7.293632627e-02
     2437550000   -4.445751756e-02   -7.287693024e-02
     2445050000   -4.313845560e-02   -7.400952280e-02
     2452550000   -4.540180415e-02   -7.360426337e-02
     2460050000   -4.428079724e-02   -7.400584221e-02
     2467550000   -4.666475952e-02   -7.319611311e-02
     2475050000   -4.765497148e-02   -7.317403704e-02
     2482550000   -4.732132331e-02   -7.349918783e-02
     2490050000   -4.714882746e-02   -7.411025465e-02
     2497550000   -4.822742566e-02   -7.386323065e-02
     2505050000   -4.885996506e-02   -7.445923984e-02
     2512550000   -5.091906711e-02   -7.408586144e-02
     2520050000   -5.082454532e-02   -7.430696487e-02
     2527550000   -5.100382864e-02   -7.364611328e-02
     2535050000   -5.145201460e-02   -7.487822324e-02
     2542550000   -5.286582559e-02   -7.400401682e-02
     2550050000   -5.274659768e-02   -7.414242625e-02
     2557550000   -5.450692400e-02   -7.325677574e-02
     2565050000   -5.466363207e-02   -7.333852351e-02
     2572550000   -5.570244789e-02   -7.338095456e-02
     2580050000   -5.678210035e-02   -7.322660834e-02
     2587550000   -5.789486319e-02   -7.358108461e-02
     2595050000   -5.851534382e-02   -7.325023413e-02
     2602550000   -6.001700088e-02   -7.348234206e-02
     2610050000   -6.121304259e-02   -7.247654349e-02
     2617550000   -6.204662472e-02   -7.234538347e-02
     2625050000   -6.311599165e-02   -7.196900249e-02
     2632550000   -6.220789626e-02   -7.239324600e-02
     2640050000   -6.412264705e-02   -7.151328027e-02
     2647550000   -6.421244144e-02   -7.111067325e-02
     2655050000   -6.534330547e-02   -7.081200927e-02
     2662550000   -6.514643878e-02   -7.022026181e-02
     2670050000   -6.606494635e-02   -6.957528740e-02
     2677550000   -6.582783908e-02   -6.956420094e-02
     2685050000   -6.612872332e-02   -6.904797256e-02
     2692550000   -6.693419814e-02   -6.808119267e-02
