! NanoVNA-App
! Date: 2020-11-14 10:24:41
! Start: 50kHz Stop: 3.0001GHz Points: 401
! S-Parameter data: F S11
# Hz S RI R 50
!     Frequency           S11 Real           S11 Imag
          50000   -9.087455869e-01   -1.857430488e-02
        7550000   -1.219448090e+00    1.127489284e-01
       15050000   -9.781034589e-01    1.041977555e-01
       22550000   -9.461556077e-01    9.517781436e-02
       30050000   -9.320878983e-01    9.617543221e-02
       37550000   -9.220646024e-01    1.008017361e-01
       45050000   -9.162579179e-01    1.081218421e-01
       52550000   -9.131411910e-01    1.140191630e-01
       60050000   -9.132627249e-01    1.216529384e-01
       67550000   -9.113963246e-01    1.302134544e-01
       75050000   -9.096916914e-01    1.392397881e-01
       82550000   -9.090479612e-01    1.495957673e-01
       90050000   -9.080286622e-01    1.596494913e-01
       97550000   -9.074975252e-01    1.706533879e-01
      105050000   -9.092269540e-01    1.825775504e-01
      112550000   -9.063904285e-01    1.926384717e-01
      120050000   -9.052598476e-01    2.041276246e-01
      127550000   -9.028655291e-01    2.170340568e-01
      135050000   -9.013419151e-01    2.295276225e-01
      142550000   -8.820070624e-01    2.389497757e-01
      150050000   -8.815225959e-01    2.520863414e-01
      157550000   -8.796313405e-01    2.642445862e-01
      165050000   -8.779670000e-01    2.760686874e-01
      172550000   -8.760914207e-01    2.894632220e-01
      180050000   -8.733869791e-01    3.016159534e-01
      187550000   -8.712216616e-01    3.154029548e-01
      195050000   -8.682081699e-01    3.288829029e-01
      202550000   -8.652573824e-01    3.422882557e-01
      210050000   -8.619734049e-01    3.556376100e-01
      217550000   -8.580567837e-01    3.695392907e-01
      225050000   -8.539954424e-01    3.830476701e-01
      232550000   -8.488557339e-01    3.965804279e-01
      240050000   -8.444231749e-01    4.110581875e-01
      247550000   -8.387112617e-01    4.257987142e-01
      255050000   -8.330113888e-01    4.397206306e-01
      262550000   -8.270946145e-01    4.540652633e-01
      270050000   -8.213407993e-01    4.671513736e-01
      277550000   -8.147716522e-01    4.805212617e-01
      285050000   -8.078648448e-01    4.940469563e-01
      292550000   -8.000696301e-01    5.085257292e-01
      300050000   -7.926359177e-01    5.211269259e-01
      307550000   -7.849913239e-01    5.344678164e-01
      315050000   -7.754759789e-01    5.488465428e-01
      322550000   -7.669821978e-01    5.612926483e-01
      330050000   -7.582148910e-01    5.741899014e-01
      337550000   -7.483555675e-01    5.869300961e-01
      345050000   -7.381979227e-01    6.002607346e-01
      352550000   -7.284063697e-01    6.120672226e-01
      360050000   -7.187408209e-01    6.233926415e-01
      367550000   -7.070693970e-01    6.361898184e-01
      375050000   -6.964268684e-01    6.488308311e-01
      382550000   -6.848958731e-01    6.599136591e-01
      390050000   -6.728418469e-01    6.719595194e-01
      397550000   -6.608652472e-01    6.829247475e-01
      405050000   -6.489564180e-01    6.935163736e-01
      412550000   -6.366118789e-01    7.041404843e-01
      420050000   -6.241142154e-01    7.143102288e-01
      427550000   -6.108198762e-01    7.244676948e-01
      435050000   -5.987015963e-01    7.334541082e-01
      442550000   -5.850555301e-01    7.435436249e-01
      450050000   -5.718389750e-01    7.526774406e-01
      457550000   -5.575301647e-01    7.613477707e-01
      465050000   -5.442228317e-01    7.695186734e-01
      472550000   -5.303822756e-01    7.777807713e-01
      480050000   -5.161494613e-01    7.856891155e-01
      487550000   -5.010155439e-01    7.936615348e-01
      495050000   -4.865829349e-01    8.007112741e-01
      502550000   -4.720011055e-01    8.077018261e-01
      510050000   -4.580990076e-01    8.135253191e-01
      517550000   -4.432658255e-01    8.196394444e-01
      525050000   -4.282186031e-01    8.257597089e-01
      532550000   -4.129398167e-01    8.305814862e-01
      540050000   -3.980560303e-01    8.355643153e-01
      547550000   -3.848554194e-01    8.398417830e-01
      555050000   -3.680379689e-01    8.447085023e-01
      562550000   -3.519811332e-01    8.488285542e-01
      570050000   -3.390482068e-01    8.517829776e-01
      577550000   -3.238015175e-01    8.557497263e-01
      585050000   -3.071054816e-01    8.587749004e-01
      592550000   -2.926166058e-01    8.612578511e-01
      600050000   -2.790904939e-01    8.631761670e-01
      607550000   -2.622657120e-01    8.651421070e-01
      615050000   -2.499657720e-01    8.665760159e-01
      622550000   -2.336246818e-01    8.684491515e-01
      630050000   -2.182842791e-01    8.698533773e-01
      637550000   -2.067562789e-01    8.704100847e-01
      645050000   -1.892994493e-01    8.713546991e-01
      652550000   -1.757202744e-01    8.715559244e-01
      660050000   -1.637307703e-01    8.709260821e-01
      667550000   -1.472786963e-01    8.711517453e-01
      675050000   -1.351170242e-01    8.701570034e-01
      682550000   -1.192946956e-01    8.699648380e-01
      690050000   -1.065880433e-01    8.693823814e-01
      697550000   -9.544932842e-02    8.679029346e-01
      705050000   -7.969314605e-02    8.669576645e-01
      712550000   -6.633645296e-02    8.657006621e-01
      720050000   -5.605052412e-02    8.643572927e-01
      727550000   -4.303194582e-02    8.627786636e-01
      735050000   -2.958747186e-02    8.614484668e-01
      742550000   -1.843458042e-02    8.592360020e-01
      750050000   -6.461733487e-03    8.572277427e-01
      757550000    7.887434214e-03    8.553532958e-01
      765050000    1.918037981e-02    8.528849483e-01
      772550000    2.951907553e-02    8.504362106e-01
      780050000    4.382178932e-02    8.482851386e-01
      787550000    5.196606368e-02    8.469455242e-01
      795050000    6.566096097e-02    8.438080549e-01
      802550000    7.715730369e-02    8.417018056e-01
      810050000    8.792872727e-02    8.395379782e-01
      817550000    1.016260982e-01    8.364641070e-01
      825050000    1.088033020e-01    8.344828486e-01
      832550000    1.224575490e-01    8.317930698e-01
      840050000    1.344009191e-01    8.293405175e-01
      847550000    1.475597620e-01    8.265125155e-01
      855050000    1.567071676e-01    8.244369626e-01
      862550000    1.719639897e-01    8.211371899e-01
      870050000    1.782757789e-01    8.197233081e-01
      877550000    1.919439733e-01    8.166828156e-01
      885050000    2.015815079e-01    8.141743541e-01
      892550000    2.168406993e-01    8.104529381e-01
      900050000    2.258913219e-01    8.085228801e-01
      907550000    2.401923984e-01    8.043788671e-01
      915050000    2.502577007e-01    8.013755083e-01
      922550000    2.621788979e-01    7.981034517e-01
      930050000    2.744163573e-01    7.947143316e-01
      937550000    2.885130644e-01    7.908266187e-01
      945050000    2.977713943e-01    7.882713675e-01
      952550000    3.111008406e-01    7.835508585e-01
      960050000    3.235959411e-01    7.798957229e-01
      967550000    3.371692896e-01    7.745944262e-01
      975050000    3.489743471e-01    7.710043192e-01
      982550000    3.614452183e-01    7.660076022e-01
      990050000    3.738629520e-01    7.614614964e-01
      997550000    3.842283189e-01    7.573491931e-01
     1005050000    3.986936510e-01    7.508147955e-01
     1012550000    4.093958735e-01    7.462390065e-01
     1020050000    4.239070714e-01    7.397558093e-01
     1027550000    4.351705015e-01    7.340201735e-01
     1035050000    4.507652223e-01    7.259858847e-01
     1042550000    4.619089365e-01    7.202666998e-01
     1050050000    4.759639800e-01    7.132406235e-01
     1057550000    4.856243730e-01    7.079117298e-01
     1065050000    5.010331273e-01    6.989721060e-01
     1072550000    5.127120018e-01    6.912786961e-01
     1080050000    5.271300077e-01    6.820026040e-01
     1087550000    5.361006856e-01    6.764851809e-01
     1095050000    5.502554178e-01    6.659194827e-01
     1102550000    5.634779334e-01    6.553640366e-01
     1110050000    5.716077089e-01    6.492633820e-01
     1117550000    5.839809775e-01    6.391654015e-01
     1125050000    5.970198512e-01    6.280246973e-01
     1132550000    6.053929329e-01    6.208063364e-01
     1140050000    6.185999513e-01    6.079288125e-01
     1147550000    6.320888996e-01    5.953938961e-01
     1155050000    6.389477253e-01    5.892767310e-01
     1162550000    6.523624063e-01    5.755218267e-01
     1170050000    6.631280184e-01    5.641484261e-01
     1177550000    6.721669436e-01    5.543484092e-01
     1185050000    6.834510565e-01    5.416472554e-01
     1192550000    6.930341721e-01    5.306493640e-01
     1200050000    7.016098499e-01    5.199837089e-01
     1207550000    7.142372727e-01    5.034154654e-01
     1215050000    7.228398919e-01    4.918815196e-01
     1222550000    7.294301391e-01    4.825083613e-01
     1230050000    7.375110984e-01    4.706518054e-01
     1237550000    7.488171458e-01    4.541863501e-01
     1245050000    7.536774874e-01    4.466370046e-01
     1252550000    7.627141476e-01    4.299956560e-01
     1260050000    7.705148458e-01    4.145778716e-01
     1267550000    7.763911486e-01    4.034928977e-01
     1275050000    7.855135202e-01    3.886505961e-01
     1282550000    7.953172326e-01    3.718600273e-01
     1290050000    8.001483679e-01    3.611387014e-01
     1297550000    8.059294224e-01    3.476828635e-01
     1305050000    8.120998740e-01    3.319563568e-01
     1312550000    8.165152669e-01    3.205286860e-01
     1320050000    8.223662972e-01    3.055442870e-01
     1327550000    8.296888471e-01    2.877092659e-01
     1335050000    8.350988030e-01    2.758244872e-01
     1342550000    8.386929035e-01    2.632300854e-01
     1350050000    8.428266644e-01    2.486215532e-01
     1357550000    8.479238153e-01    2.305101305e-01
     1365050000    8.506431580e-01    2.176016867e-01
     1372550000    8.545939326e-01    2.042096108e-01
     1380050000    8.593235612e-01    1.869369149e-01
     1387550000    8.615431190e-01    1.725630462e-01
     1395050000    8.630213737e-01    1.620721668e-01
     1402550000    8.663518429e-01    1.436936110e-01
     1410050000    8.710762262e-01    1.247605607e-01
     1417550000    8.712368608e-01    1.102511361e-01
     1425050000    8.730273843e-01    1.000598893e-01
     1432550000    8.749324083e-01    8.564496040e-02
     1440050000    8.772379160e-01    7.351522893e-02
     1447550000    8.783410192e-01    5.283727124e-02
     1455050000    8.792478442e-01    4.215534404e-02
     1462550000    8.808674216e-01    2.789689042e-02
     1470050000    8.804663420e-01    1.132361591e-02
     1477550000    8.812950253e-01    3.273203038e-04
     1485050000    8.814566731e-01   -1.742632315e-02
     1492550000    8.811908364e-01   -3.041135520e-02
     1500050000    8.810720444e-01   -3.880110383e-02
     1507550000    8.796935081e-01   -6.352308393e-02
     1515050000    8.788037300e-01   -7.784198970e-02
     1522550000    8.777465820e-01   -8.879891038e-02
     1530050000    8.751143217e-01   -1.086768508e-01
     1537550000    8.734552264e-01   -1.212114915e-01
     1545050000    8.724376559e-01   -1.317867339e-01
     1552550000    8.698662519e-01   -1.521751285e-01
     1560050000    8.685147166e-01   -1.625348032e-01
     1567550000    8.674483895e-01   -1.751543134e-01
     1575050000    8.659785390e-01   -1.900308281e-01
     1582550000    8.617628217e-01   -2.064130008e-01
     1590050000    8.603525162e-01   -2.181521356e-01
     1597550000    8.577985168e-01   -2.297437340e-01
     1605050000    8.538408875e-01   -2.496983409e-01
     1612550000    8.512495160e-01   -2.587069571e-01
     1620050000    8.481789827e-01   -2.721230686e-01
     1627550000    8.437237144e-01   -2.892760038e-01
     1635050000    8.374078274e-01   -3.076297641e-01
     1642550000    8.344741464e-01   -3.196422756e-01
     1650050000    8.305416107e-01   -3.309938908e-01
     1657550000    8.243619204e-01   -3.486524820e-01
     1665050000    8.212738037e-01   -3.593884110e-01
     1672550000    8.156991601e-01   -3.752529025e-01
     1680050000    8.120816946e-01   -3.856631219e-01
     1687550000    8.042000532e-01   -4.055498838e-01
     1695050000    7.987039089e-01   -4.172144532e-01
     1702550000    7.932229638e-01   -4.304578900e-01
     1710050000    7.903300524e-01   -4.396232665e-01
     1717550000    7.801926732e-01   -4.586212337e-01
     1725050000    7.757963538e-01   -4.688754380e-01
     1732550000    7.667787671e-01   -4.865553379e-01
     1740050000    7.639189363e-01   -4.942291081e-01
     1747550000    7.526404262e-01   -5.125234723e-01
     1755050000    7.455338836e-01   -5.260637999e-01
     1762550000    7.359839082e-01   -5.405066013e-01
     1770050000    7.307195067e-01   -5.504755974e-01
     1777550000    7.190405726e-01   -5.672016740e-01
     1785050000    7.101964951e-01   -5.804669857e-01
     1792550000    7.035551667e-01   -5.902827978e-01
     1800050000    6.974557638e-01   -5.996116996e-01
     1807550000    6.822173595e-01   -6.169562340e-01
     1815050000    6.737828851e-01   -6.281045079e-01
     1822550000    6.629135609e-01   -6.399533749e-01
     1830050000    6.520445943e-01   -6.521054506e-01
     1837550000    6.418343782e-01   -6.635274887e-01
     1845050000    6.331837773e-01   -6.716997027e-01
     1852550000    6.179335117e-01   -6.865215898e-01
     1860050000    6.104429364e-01   -6.943727732e-01
     1867550000    5.947287679e-01   -7.073630095e-01
     1875050000    5.813214779e-01   -7.185494304e-01
     1882550000    5.735315084e-01   -7.253240943e-01
     1890050000    5.578341484e-01   -7.369511724e-01
     1897550000    5.423704982e-01   -7.486689687e-01
     1905050000    5.354522467e-01   -7.544757128e-01
     1912550000    5.206906796e-01   -7.635756135e-01
     1920050000    5.087813139e-01   -7.715528607e-01
     1927550000    4.896808267e-01   -7.833337784e-01
     1935050000    4.851932526e-01   -7.861492634e-01
     1942550000    4.709258378e-01   -7.946500778e-01
     1950050000    4.508242011e-01   -8.061795235e-01
     1957550000    4.422371686e-01   -8.107559681e-01
     1965050000    4.305435717e-01   -8.172369003e-01
     1972550000    4.138128161e-01   -8.257549405e-01
     1980050000    3.996373415e-01   -8.317127824e-01
     1987550000    3.846049011e-01   -8.388291001e-01
     1995050000    3.705480099e-01   -8.441762328e-01
     2002550000    3.583095074e-01   -8.492957354e-01
     2010050000    3.347016573e-01   -8.563136458e-01
     2017550000    3.284058571e-01   -8.560018539e-01
     2025050000    3.122165799e-01   -8.610647917e-01
     2032550000    2.977216244e-01   -8.643683791e-01
     2040050000    2.828689218e-01   -8.663157821e-01
     2047550000    2.735921741e-01   -8.671409488e-01
     2055050000    2.616117895e-01   -8.699480891e-01
     2062550000    2.472996414e-01   -8.735860586e-01
     2070050000    2.302119136e-01   -8.762006164e-01
     2077550000    2.235664576e-01   -8.775674701e-01
     2085050000    2.071329802e-01   -8.804427981e-01
     2092550000    1.995384246e-01   -8.802649975e-01
     2100050000    1.797926575e-01   -8.839305639e-01
     2107550000    1.699965745e-01   -8.848876953e-01
     2115050000    1.608573645e-01   -8.860330582e-01
     2122550000    1.457302570e-01   -8.877450824e-01
     2130050000    1.311741322e-01   -8.886373043e-01
     2137550000    1.195568517e-01   -8.900117278e-01
     2145050000    1.082761660e-01   -8.908494115e-01
     2152550000    9.966267645e-02   -8.909677267e-01
     2160050000    7.946194708e-02   -8.926605582e-01
     2167550000    6.875273585e-02   -8.930988908e-01
     2175050000    6.018185616e-02   -8.933714032e-01
     2182550000    4.867508262e-02   -8.936051130e-01
     2190050000    3.837117553e-02   -8.940346241e-01
     2197550000    2.088634297e-02   -8.939764500e-01
     2205050000    9.801974520e-03   -8.930990696e-01
     2212550000   -1.338642673e-03   -8.925437927e-01
     2220050000   -2.351635601e-03   -8.918165565e-01
     2227550000   -2.259723842e-02   -8.913493156e-01
     2235050000   -3.323861957e-02   -8.900892138e-01
     2242550000   -4.976492375e-02   -8.886237741e-01
     2250050000   -5.979423597e-02   -8.890531063e-01
     2257550000   -7.248974591e-02   -8.878961802e-01
     2265050000   -7.511724532e-02   -8.874223232e-01
     2272550000   -8.939263225e-02   -8.863143921e-01
     2280050000   -1.012407839e-01   -8.853144050e-01
     2287550000   -1.215089932e-01   -8.825295568e-01
     2295050000   -1.268131584e-01   -8.816932440e-01
     2302550000   -1.359870881e-01   -8.808152080e-01
     2310050000   -1.398026645e-01   -8.808613420e-01
     2317550000   -1.534158885e-01   -8.788850904e-01
     2325050000   -1.647564769e-01   -8.770722747e-01
     2332550000   -1.764715910e-01   -8.757553101e-01
     2340050000   -1.877833605e-01   -8.739744425e-01
     2347550000   -1.958777159e-01   -8.730466366e-01
     2355050000   -2.022945434e-01   -8.720355630e-01
     2362550000   -2.163641751e-01   -8.688619137e-01
     2370050000   -2.297411114e-01   -8.676053882e-01
     2377550000   -2.376111299e-01   -8.666499853e-01
     2385050000   -2.516340613e-01   -8.643251061e-01
     2392550000   -2.591640353e-01   -8.634440303e-01
     2400050000   -2.631869614e-01   -8.639205694e-01
     2407550000   -2.738127708e-01   -8.622508645e-01
     2415050000   -2.887520790e-01   -8.604444265e-01
     2422550000   -3.027524352e-01   -8.578193188e-01
     2430050000   -3.082482517e-01   -8.587771654e-01
     2437550000   -3.216615319e-01   -8.568602800e-01
     2445050000   -3.284409642e-01   -8.574810028e-01
     2452550000   -3.433943689e-01   -8.550671935e-01
     2460050000   -3.535333872e-01   -8.547047377e-01
     2467550000   -3.718384504e-01   -8.493739963e-01
     2475050000   -3.795759678e-01   -8.505887389e-01
     2482550000   -3.929072022e-01   -8.479123712e-01
     2490050000   -3.977992833e-01   -8.497387171e-01
     2497550000   -4.145143926e-01   -8.465943336e-01
     2505050000   -4.257898033e-01   -8.450020552e-01
     2512550000   -4.458833337e-01   -8.395050168e-01
     2520050000   -4.528494775e-01   -8.406621814e-01
     2527550000   -4.709765911e-01   -8.336089849e-01
     2535050000   -4.741361141e-01   -8.354653716e-01
     2542550000   -4.936264753e-01   -8.289309740e-01
     2550050000   -5.031492710e-01   -8.267509937e-01
     2557550000   -5.285817981e-01   -8.144910932e-01
     2565050000   -5.369945765e-01   -8.124563694e-01
     2572550000   -5.506369472e-01   -8.067003489e-01
     2580050000   -5.608450174e-01   -8.029514551e-01
     2587550000   -5.701445341e-01   -7.978479862e-01
     2595050000   -5.869597197e-01   -7.890033126e-01
     2602550000   -5.980467200e-01   -7.834600210e-01
     2610050000   -6.139521599e-01   -7.744838595e-01
     2617550000   -6.252073646e-01   -7.687173486e-01
     2625050000   -6.370097995e-01   -7.599132657e-01
     2632550000   -6.458104849e-01   -7.560861111e-01
     2640050000   -6.596747637e-01   -7.463161945e-01
     2647550000   -6.766459346e-01   -7.339093089e-01
     2655050000   -6.916704774e-01   -7.231230140e-01
     2662550000   -6.962554455e-01   -7.225891948e-01
     2670050000   -7.133630514e-01   -7.077068090e-01
     2677550000   -7.290222645e-01   -6.960281730e-01
     2685050000   -7.291147709e-01   -6.978806853e-01
     2692550000   -7.446494699e-01   -6.860718727e-01
