! NanoVNA-App
! Date: 2020-11-14 10:24:41
! Start: 50kHz Stop: 3.0001GHz Points: 401
! S-Parameter data: F S11
# Hz S RI R 50
!     Frequency           S11 Real           S11 Imag
          50000    2.819607854e-01    1.281950809e-02
        7550000    1.124655366e+00   -2.993482947e-01
       15050000    7.733772993e-01   -2.050040066e-01
       22550000    7.260501385e-01   -1.872059405e-01
       30050000    7.013157606e-01   -1.920891106e-01
       37550000    6.837443709e-01   -2.040935755e-01
       45050000    6.697640419e-01   -2.201133966e-01
       52550000    6.570050716e-01   -2.384521365e-01
       60050000    6.448714733e-01   -2.577287853e-01
       67550000    6.328644753e-01   -2.780916691e-01
       75050000    6.206874847e-01   -2.989460826e-01
       82550000    6.078692675e-01   -3.204105198e-01
       90050000    5.947572589e-01   -3.421665728e-01
       97550000    5.810328722e-01   -3.630857170e-01
      105050000    5.659237504e-01   -3.847395778e-01
      112550000    5.520034432e-01   -4.047346115e-01
      120050000    5.367588997e-01   -4.258989096e-01
      127550000    5.203105211e-01   -4.456954598e-01
      135050000    5.032930970e-01   -4.658631682e-01
      142550000    4.486886263e-01   -5.018629432e-01
      150050000    4.296684861e-01   -5.209909678e-01
      157550000    4.089586437e-01   -5.388854146e-01
      165050000    3.886207342e-01   -5.550663471e-01
      172550000    3.665736020e-01   -5.717059374e-01
      180050000    3.450398743e-01   -5.853029490e-01
      187550000    3.221307099e-01   -6.012409925e-01
      195050000    2.979734242e-01   -6.158299446e-01
      202550000    2.744509280e-01   -6.288174987e-01
      210050000    2.492757440e-01   -6.414750218e-01
      217550000    2.237058878e-01   -6.535612941e-01
      225050000    1.969587654e-01   -6.644730568e-01
      232550000    1.700654626e-01   -6.732182503e-01
      240050000    1.422919631e-01   -6.835664511e-01
      247550000    1.132961065e-01   -6.919732690e-01
      255050000    8.401939273e-02   -6.989636421e-01
      262550000    5.485291779e-02   -7.048412561e-01
      270050000    2.506261691e-02   -7.096363902e-01
      277550000   -4.571001977e-03   -7.133731842e-01
      285050000   -3.629153967e-02   -7.158397436e-01
      292550000   -6.865046918e-02   -7.162852287e-01
      300050000   -1.000485197e-01   -7.158023715e-01
      307550000   -1.325244308e-01   -7.136712670e-01
      315050000   -1.654540598e-01   -7.105542421e-01
      322550000   -1.966665685e-01   -7.056890726e-01
      330050000   -2.283160686e-01   -6.996937990e-01
      337550000   -2.615189254e-01   -6.915302873e-01
      345050000   -2.960432470e-01   -6.810900569e-01
      352550000   -3.277435601e-01   -6.697688103e-01
      360050000   -3.584417403e-01   -6.567851305e-01
      367550000   -3.920061886e-01   -6.416530013e-01
      375050000   -4.224712551e-01   -6.260582209e-01
      382550000   -4.539237618e-01   -6.072520614e-01
      390050000   -4.832386672e-01   -5.881551504e-01
      397550000   -5.116350055e-01   -5.672087669e-01
      405050000   -5.391570926e-01   -5.452179313e-01
      412550000   -5.674616694e-01   -5.189756155e-01
      420050000   -5.940183997e-01   -4.923766553e-01
      427550000   -6.189469099e-01   -4.641205370e-01
      435050000   -6.429740191e-01   -4.347709715e-01
      442550000   -6.648689508e-01   -4.045242369e-01
      450050000   -6.855686903e-01   -3.721556664e-01
      457550000   -7.033612728e-01   -3.394577205e-01
      465050000   -7.212542295e-01   -3.044724166e-01
      472550000   -7.365794778e-01   -2.695314288e-01
      480050000   -7.503388524e-01   -2.339262217e-01
      487550000   -7.622128129e-01   -1.946112514e-01
      495050000   -7.715148926e-01   -1.586223394e-01
      502550000   -7.785877585e-01   -1.213411391e-01
      510050000   -7.838768363e-01   -8.243674040e-02
      517550000   -7.869327664e-01   -4.451700300e-02
      525050000   -7.879416347e-01   -4.079859238e-03
      532550000   -7.863510251e-01    3.532617912e-02
      540050000   -7.831778526e-01    7.401014119e-02
      547550000   -7.774825096e-01    1.126970425e-01
      555050000   -7.693083882e-01    1.529199928e-01
      562550000   -7.594819069e-01    1.904697418e-01
      570050000   -7.487741709e-01    2.234765589e-01
      577550000   -7.348039150e-01    2.616571784e-01
      585050000   -7.190157175e-01    2.962357998e-01
      592550000   -7.026027441e-01    3.291984797e-01
      600050000   -6.850678921e-01    3.595408201e-01
      607550000   -6.635732651e-01    3.930661380e-01
      615050000   -6.439838409e-01    4.205910861e-01
      622550000   -6.206975579e-01    4.496527314e-01
      630050000   -5.941837430e-01    4.798207283e-01
      637550000   -5.715783834e-01    5.025222898e-01
      645050000   -5.423789024e-01    5.298649669e-01
      652550000   -5.154271722e-01    5.521923900e-01
      660050000   -4.878026843e-01    5.728241801e-01
      667550000   -4.562327862e-01    5.947115421e-01
      675050000   -4.296349287e-01    6.104147434e-01
      682550000   -3.973872364e-01    6.285381913e-01
      690050000   -3.678710163e-01    6.432232261e-01
      697550000   -3.403808475e-01    6.551209092e-01
      705050000   -3.080919385e-01    6.679663658e-01
      712550000   -2.768395841e-01    6.780894399e-01
      720050000   -2.476529777e-01    6.861792803e-01
      727550000   -2.143871784e-01    6.945277452e-01
      735050000   -1.783704013e-01    7.018595934e-01
      742550000   -1.461386681e-01    7.064476013e-01
      750050000   -1.158227250e-01    7.093656659e-01
      757550000   -7.996291667e-02    7.112016678e-01
      765050000   -5.050326139e-02    7.111362219e-01
      772550000   -1.977640949e-02    7.102831602e-01
      780050000    1.319327764e-02    7.079303265e-01
      787550000    4.087303579e-02    7.046575546e-01
      795050000    7.288705558e-02    6.996819973e-01
      802550000    1.013216674e-01    6.935697198e-01
      810050000    1.283643991e-01    6.871217489e-01
      817550000    1.594949663e-01    6.781985760e-01
      825050000    1.830801070e-01    6.698889732e-01
      832550000    2.142656893e-01    6.585336924e-01
      840050000    2.375574708e-01    6.481205225e-01
      847550000    2.660119236e-01    6.347931027e-01
      855050000    2.886822224e-01    6.235218644e-01
      862550000    3.168680668e-01    6.083269119e-01
      870050000    3.378826678e-01    5.957977772e-01
      877550000    3.643290699e-01    5.782825947e-01
      885050000    3.861298263e-01    5.636649728e-01
      892550000    4.102619290e-01    5.458808541e-01
      900050000    4.300451875e-01    5.302468538e-01
      907550000    4.525194168e-01    5.111064911e-01
      915050000    4.726141691e-01    4.930242598e-01
      922550000    4.916960299e-01    4.744553864e-01
      930050000    5.120089650e-01    4.547530413e-01
      937550000    5.318897963e-01    4.333213270e-01
      945050000    5.480802655e-01    4.147536755e-01
      952550000    5.672228336e-01    3.913308084e-01
      960050000    5.844452381e-01    3.691522777e-01
      967550000    6.008349657e-01    3.473706841e-01
      975050000    6.172908545e-01    3.220829964e-01
      982550000    6.316550970e-01    2.992274165e-01
      990050000    6.470098495e-01    2.715186179e-01
      997550000    6.592600942e-01    2.478487790e-01
     1005050000    6.728757620e-01    2.165403664e-01
     1012550000    6.828629375e-01    1.931477934e-01
     1020050000    6.944488287e-01    1.604444236e-01
     1027550000    7.037987113e-01    1.305918097e-01
     1035050000    7.124410868e-01    9.703411162e-02
     1042550000    7.193461657e-01    7.077278942e-02
     1050050000    7.257549167e-01    3.519694880e-02
     1057550000    7.302492261e-01    7.050551008e-03
     1065050000    7.336694598e-01   -2.939477004e-02
     1072550000    7.359039783e-01   -5.965160951e-02
     1080050000    7.363650799e-01   -9.715871513e-02
     1087550000    7.363662720e-01   -1.264153719e-01
     1095050000    7.337887287e-01   -1.613098383e-01
     1102550000    7.289277315e-01   -2.011857033e-01
     1110050000    7.258346677e-01   -2.284447402e-01
     1117550000    7.182877064e-01   -2.664473057e-01
     1125050000    7.097787857e-01   -3.022757471e-01
     1132550000    7.018514276e-01   -3.338008523e-01
     1140050000    6.905019879e-01   -3.673640192e-01
     1147550000    6.760101914e-01   -4.053995907e-01
     1155050000    6.640822291e-01   -4.353002608e-01
     1162550000    6.476799846e-01   -4.698758423e-01
     1170050000    6.269300580e-01   -5.060462356e-01
     1177550000    6.128595471e-01   -5.329690576e-01
     1185050000    5.848516822e-01   -5.719760060e-01
     1192550000    5.637395382e-01   -6.011613011e-01
     1200050000    5.375152230e-01   -6.321227551e-01
     1207550000    5.062850714e-01   -6.651921868e-01
     1215050000    4.721854925e-01   -6.968808770e-01
     1222550000    4.410179853e-01   -7.235498428e-01
     1230050000    4.058452547e-01   -7.504942417e-01
     1237550000    3.608223498e-01   -7.789166570e-01
     1245050000    3.253722191e-01   -7.995374203e-01
     1252550000    2.810394764e-01   -8.219991922e-01
     1260050000    2.343113124e-01   -8.416054845e-01
     1267550000    1.952559054e-01   -8.563617468e-01
     1275050000    1.475409716e-01   -8.700424433e-01
     1282550000    9.794139862e-02   -8.811126351e-01
     1290050000    5.329013988e-02   -8.886549473e-01
     1297550000    1.138824783e-02   -8.932357430e-01
     1305050000   -4.259549081e-02   -8.953763843e-01
     1312550000   -8.687641472e-02   -8.953393102e-01
     1320050000   -1.296127588e-01   -8.919495344e-01
     1327550000   -1.842948496e-01   -8.847028017e-01
     1335050000   -2.298645228e-01   -8.754974604e-01
     1342550000   -2.720896602e-01   -8.655346632e-01
     1350050000   -3.190543950e-01   -8.506961465e-01
     1357550000   -3.698864877e-01   -8.309046626e-01
     1365050000   -4.124673009e-01   -8.121415973e-01
     1372550000   -4.489260912e-01   -7.933705449e-01
     1380050000   -4.965693355e-01   -7.653796077e-01
     1387550000   -5.352943540e-01   -7.386932373e-01
     1395050000   -5.695201755e-01   -7.132549882e-01
     1402550000   -6.092951894e-01   -6.789805293e-01
     1410050000   -6.467880607e-01   -6.426185966e-01
     1417550000   -6.762418151e-01   -6.101354957e-01
     1425050000   -7.084739208e-01   -5.708947182e-01
     1432550000   -7.373294830e-01   -5.348006487e-01
     1440050000   -7.624114156e-01   -4.971597195e-01
     1447550000   -7.915507555e-01   -4.464675784e-01
     1455050000   -8.089756370e-01   -4.108003974e-01
     1462550000   -8.285276890e-01   -3.652420342e-01
     1470050000   -8.463354111e-01   -3.161481619e-01
     1477550000   -8.581339121e-01   -2.733314335e-01
     1485050000   -8.702413440e-01   -2.206552625e-01
     1492550000   -8.773034811e-01   -1.759847999e-01
     1500050000   -8.821249604e-01   -1.302431524e-01
     1507550000   -8.845236897e-01   -7.626289129e-02
     1515050000   -8.831136823e-01   -3.185959160e-02
     1522550000   -8.789213300e-01    1.128832344e-02
     1530050000   -8.716420531e-01    6.138745323e-02
     1537550000   -8.619121909e-01    1.054404899e-01
     1545050000   -8.508933187e-01    1.433385760e-01
     1552550000   -8.364277482e-01    1.878259033e-01
     1560050000   -8.212848902e-01    2.264268845e-01
     1567550000   -8.045722842e-01    2.610428035e-01
     1575050000   -7.847296596e-01    2.987658083e-01
     1582550000   -7.614091635e-01    3.389147520e-01
     1590050000   -7.394668460e-01    3.702150583e-01
     1597550000   -7.164779305e-01    3.997263312e-01
     1605050000   -6.896783113e-01    4.328719079e-01
     1612550000   -6.646527052e-01    4.599170089e-01
     1620050000   -6.417700648e-01    4.815500975e-01
     1627550000   -6.156464219e-01    5.053557754e-01
     1635050000   -5.847758055e-01    5.325747132e-01
     1642550000   -5.587721467e-01    5.515880585e-01
     1650050000   -5.336394310e-01    5.690314174e-01
     1657550000   -5.014122128e-01    5.915623903e-01
     1665050000   -4.761540890e-01    6.060932875e-01
     1672550000   -4.482478201e-01    6.216689348e-01
     1680050000   -4.227406979e-01    6.345779896e-01
     1687550000   -3.903039098e-01    6.506783366e-01
     1695050000   -3.644485176e-01    6.621631384e-01
     1702550000   -3.393940628e-01    6.726565361e-01
     1710050000   -3.122051060e-01    6.833744645e-01
     1717550000   -2.815043926e-01    6.947031617e-01
     1725050000   -2.535174787e-01    7.043123245e-01
     1732550000   -2.242065966e-01    7.140492797e-01
     1740050000   -2.029654980e-01    7.200472951e-01
     1747550000   -1.666326076e-01    7.300227284e-01
     1755050000   -1.437201053e-01    7.360303998e-01
     1762550000   -1.125272140e-01    7.432461381e-01
     1770050000   -8.882150054e-02    7.486655116e-01
     1777550000   -5.311034992e-02    7.543891668e-01
     1785050000   -2.695256658e-02    7.590134144e-01
     1792550000    6.688742898e-03    7.626715899e-01
     1800050000    3.173089400e-02    7.657765746e-01
     1807550000    6.943899393e-02    7.673945427e-01
     1815050000    9.908667207e-02    7.685998082e-01
     1822550000    1.320030093e-01    7.686815262e-01
     1830050000    1.660936177e-01    7.666844130e-01
     1837550000    1.986692250e-01    7.647939324e-01
     1845050000    2.307164669e-01    7.617189288e-01
     1852550000    2.714578211e-01    7.544363141e-01
     1860050000    2.991283834e-01    7.504529357e-01
     1867550000    3.372833729e-01    7.404655218e-01
     1875050000    3.790242374e-01    7.269372940e-01
     1882550000    4.059013724e-01    7.191282511e-01
     1890050000    4.448927939e-01    7.028678656e-01
     1897550000    4.861817956e-01    6.824314594e-01
     1905050000    5.161315799e-01    6.637907624e-01
     1912550000    5.504258871e-01    6.375210285e-01
     1920050000    5.809466839e-01    6.118310690e-01
     1927550000    6.129559875e-01    5.809814334e-01
     1935050000    6.373538971e-01    5.548456311e-01
     1942550000    6.658337712e-01    5.204218030e-01
     1950050000    6.913553476e-01    4.846377969e-01
     1957550000    7.157251835e-01    4.463743865e-01
     1965050000    7.319682240e-01    4.174018800e-01
     1972550000    7.525833845e-01    3.755517900e-01
     1980050000    7.723912597e-01    3.272962272e-01
     1987550000    7.838408351e-01    2.928353548e-01
     1995050000    7.950979471e-01    2.507460415e-01
     2002550000    8.034896851e-01    2.088990808e-01
     2010050000    8.096361160e-01    1.640085727e-01
     2017550000    8.106477261e-01    1.289235950e-01
     2025050000    8.114174008e-01    8.610112220e-02
     2032550000    8.095339537e-01    4.594840482e-02
     2040050000    8.058854938e-01    4.479829222e-03
     2047550000    8.002265096e-01   -3.111491539e-02
     2055050000    7.931892276e-01   -6.949336827e-02
     2062550000    7.843947411e-01   -1.057972834e-01
     2070050000    7.733809352e-01   -1.462930888e-01
     2077550000    7.632557750e-01   -1.728462577e-01
     2085050000    7.503983378e-01   -2.062098533e-01
     2092550000    7.352501750e-01   -2.400660217e-01
     2100050000    7.180990577e-01   -2.763394713e-01
     2107550000    6.992217898e-01   -3.096664548e-01
     2115050000    6.850863695e-01   -3.299049735e-01
     2122550000    6.631249189e-01   -3.619801998e-01
     2130050000    6.422100663e-01   -3.889115751e-01
     2137550000    6.204911470e-01   -4.147420526e-01
     2145050000    6.009916663e-01   -4.336548746e-01
     2152550000    5.725090504e-01   -4.631854594e-01
     2160050000    5.465137362e-01   -4.870751202e-01
     2167550000    5.225059390e-01   -5.056933761e-01
     2175050000    5.005299449e-01   -5.209659934e-01
     2182550000    4.722474217e-01   -5.411686897e-01
     2190050000    4.469757676e-01   -5.554666519e-01
     2197550000    4.191701412e-01   -5.714405775e-01
     2205050000    3.921506107e-01   -5.846919417e-01
     2212550000    3.646549881e-01   -5.971443057e-01
     2220050000    3.465146422e-01   -6.025621891e-01
     2227550000    3.150633872e-01   -6.157560945e-01
     2235050000    2.882611752e-01   -6.245715618e-01
     2242550000    2.584623694e-01   -6.336655021e-01
     2250050000    2.342112809e-01   -6.403108835e-01
     2257550000    2.105319798e-01   -6.460152864e-01
     2265050000    1.919349134e-01   -6.494368315e-01
     2272550000    1.613957435e-01   -6.559144258e-01
     2280050000    1.394206583e-01   -6.599131823e-01
     2287550000    1.075447500e-01   -6.649152637e-01
     2295050000    8.391378820e-02   -6.682872772e-01
     2302550000    6.271423399e-02   -6.707944870e-01
     2310050000    3.982347623e-02   -6.738678813e-01
     2317550000    1.365952939e-02   -6.769100428e-01
     2325050000   -1.400078554e-02   -6.793156266e-01
     2332550000   -4.572863877e-02   -6.805516481e-01
     2340050000   -6.771180779e-02   -6.822785735e-01
     2347550000   -9.141615033e-02   -6.825253963e-01
     2355050000   -1.208682656e-01   -6.819717884e-01
     2362550000   -1.481487602e-01   -6.808302999e-01
     2370050000   -1.844503134e-01   -6.770032644e-01
     2377550000   -2.111518830e-01   -6.740466952e-01
     2385050000   -2.443958223e-01   -6.677601933e-01
     2392550000   -2.742263079e-01   -6.618247032e-01
     2400050000   -3.011280894e-01   -6.552124619e-01
     2407550000   -3.370025158e-01   -6.444697976e-01
     2415050000   -3.718148768e-01   -6.314373016e-01
     2422550000   -4.071682692e-01   -6.151245236e-01
     2430050000   -4.356216788e-01   -6.024867892e-01
     2437550000   -4.690447152e-01   -5.830017328e-01
     2445050000   -4.944984913e-01   -5.683670640e-01
     2452550000   -5.290458202e-01   -5.421448946e-01
     2460050000   -5.559800863e-01   -5.200083256e-01
     2467550000   -5.905128717e-01   -4.863677323e-01
     2475050000   -6.174057126e-01   -4.574979842e-01
     2482550000   -6.405348778e-01   -4.296388626e-01
     2490050000   -6.600987911e-01   -4.035964608e-01
     2497550000   -6.862051487e-01   -3.616866767e-01
     2505050000   -7.150372267e-01   -3.048382699e-01
     2512550000   -7.350355387e-01   -2.564290166e-01
     2520050000   -7.473663688e-01   -2.240914106e-01
     2527550000   -7.604951262e-01   -1.775567681e-01
     2535050000   -7.663850188e-01   -1.459157020e-01
     2542550000   -7.730572820e-01   -1.022971869e-01
     2550050000   -7.763388157e-01   -6.623777747e-02
     2557550000   -7.778810263e-01   -1.145572774e-02
     2565050000   -7.756054401e-01    2.747003175e-02
     2572550000   -7.712131143e-01    6.807731092e-02
     2580050000   -7.644478679e-01    1.059621647e-01
     2587550000   -7.561115026e-01    1.396474242e-01
     2595050000   -7.429447174e-01    1.844208091e-01
     2602550000   -7.291442752e-01    2.209653556e-01
     2610050000   -7.096818089e-01    2.649550140e-01
     2617550000   -6.922062635e-01    2.952293456e-01
     2625050000   -6.708550453e-01    3.298052549e-01
     2632550000   -6.494195461e-01    3.578410149e-01
     2640050000   -6.235933304e-01    3.892931342e-01
     2647550000   -5.974170566e-01    4.168884754e-01
     2655050000   -5.652663708e-01    4.481253028e-01
     2662550000   -5.434173346e-01    4.631699026e-01
     2670050000   -5.115887523e-01    4.868605435e-01
     2677550000   -4.827824831e-01    5.046796203e-01
     2685050000   -4.613587558e-01    5.126324296e-01
     2692550000   -4.255928397e-01    5.325025320e-01
