! NanoVNA-App
! Date: 2021-04-11 20:28:23
! Start: 2.45GHz Stop: 2.55GHz Points: 1024
! S-Parameter data: F S11 S21 S12 S22
# Hz S RI R 50
!     Frequency           S11_Real           S11_Imag           S21_Real           S21_Imag           S12_Real           S12_Imag           S22_Real           S22_Imag
     2450000000    9.285701811e-02    1.908732206e-01   -4.808753729e-03   -3.163015703e-03    0.000000000e+00    0.000000000e+00    0.000000000e+00    0.000000000e+00
     2450097752    9.418042004e-02    1.928142011e-01   -5.036311224e-03   -2.754419111e-03    0.000000000e+00    0.000000000e+00    0.000000000e+00    0.000000000e+00
     2450195503    9.314016253e-02    1.971816421e-01   -5.175215192e-03   -3.334010020e-03    0.000000000e+00    0.000000000e+00    0.000000000e+00    0.000000000e+00
     2450293255    9.295476973e-02    1.939815581e-01   -4.686118104e-03   -2.828787779e-03    0.000000000e+00    0.000000000e+00    0.000000000e+00    0.000000000e+00
     2450391007    9.209861606e-02    1.914853901e-01   -5.479868501e-03   -2.975207055e-03    0.000000000e+00    0.000000000e+00    0.000000000e+00    0.000000000e+00
     2450488759    9.686848521e-02    1.846888512e-01   -5.213291850e-03   -2.892416902e-03    0.000000000e+00    0.000000000e+00    0.000000000e+00    0.000000000e+00
     2450586510    9.582962841e-02    1.913622171e-01   -5.237531848e-03   -3.046361497e-03    0.000000000e+00    0.000000000e+00    0.000000000e+00    0.000000000e+00
     2450684262    9.311458468e-02    1.943386644e-01   -5.067963153e-03   -2.701372374e-03    0.000000000e+00    0.000000000e+00    0.000000000e+00    0.000000000e+00
     2450782014    9.579082578e-02    1.923086345e-01   -5.525652319e-03   -3.008710686e-03    0.000000000e+00    0.000000000e+00    0.000000000e+00    0.000000000e+00
     2450879765    9.820839018e-02    1.873303503e-01   -5.192026496e-03   -2.988166874e-03    0.000000000e+00    0.000000000e+00    0.000000000e+00    0.000000000e+00
     2450977517    9.960439801e-02    1.801532209e-01   -5.533129442e-03   -2.677847864e-03    0.000000000e+00    0.000000000e+00    0.000000000e+00    0.000000000e+00
     2451075269    9.881394356e-02    1.892907023e-01   -5.424186122e-03   -2.447998617e-03    0.000000000e+00    0.000000000e+00    0.000000000e+00    0.000000000e+00
     2451173021    9.768406302e-02    1.899394095e-01   -5.497086328e-03   -2.465357305e-03    0.000000000e+00    0.000000000e+00    0.000000000e+00    0.000000000e+00
     2451270772    9.958995134e-02    1.882646084e-01   -5.511923227e-03   -2.368593821e-03    0.000000000e+00    0.000000000e+00    0.000000000e+00    0.000000000e+00
     2451368524    9.933515638e-02    1.878795028e-01   -5.497705657e-03   -2.509847749e-03    0.000000000e+00    0.000000000e+00    0.000000000e+00    0.000000000e+00
     2451466276    9.852947295e-02    1.878692061e-01   -5.546682049e-03   -2.477588132e-03    0.000000000e+00    0.000000000e+00    0.000000000e+00    0.000000000e+00
     2451564027    9.840612113e-02    1.890183091e-01   -5.582935177e-03   -2.588927746e-03    0.000000000e+00    0.000000000e+00    0.000000000e+00    0.000000000e+00
     2451661779    1.002943218e-01    1.830373257e-01   -5.860719830e-03   -2.237955574e-03    0.000000000e+00    0.000000000e+00    0.000000000e+00    0.000000000e+00
     2451759531    1.032279059e-01    1.880534142e-01   -5.901942961e-03   -2.204455668e-03    0.000000000e+00    0.000000000e+00    0.000000000e+00    0.000000000e+00
     2451857283    1.032304615e-01    1.843116134e-01   -5.796629470e-03   -2.251247875e-03    0.000000000e+00    0.000000000e+00    0.000000000e+00    0.000000000e+00
     2451955034    9.973841161e-02    1.864199489e-01   -5.905246828e-03   -1.850978588e-03    0.000000000e+00    0.000000000e+00    0.000000000e+00    0.000000000e+00
     2452052786    1.007695273e-01    1.882938594e-01   -5.991512444e-03   -2.166009042e-03    0.000000000e+00    0.000000000e+00    0.000000000e+00    0.000000000e+00
     2452150538    1.025522500e-01    1.846131384e-01   -6.237957161e-03   -2.316452330e-03    0.000000000e+00    0.000000000e+00    0.000000000e+00    0.000000000e+00
     2452248289    1.025429741e-01    1.876555383e-01   -6.023621652e-03   -2.318287501e-03    0.000000000e+00    0.000000000e+00    0.000000000e+00    0.000000000e+00
     2452346041    1.046163887e-01    1.893981695e-01   -5.735957064e-03   -2.044015797e-03    0.000000000e+00    0.000000000e+00    0.000000000e+00    0.000000000e+00
     2452443793    1.023885384e-01    1.864220649e-01   -6.264645141e-03   -2.082569059e-03    0.000000000e+00    0.000000000e+00    0.000000000e+00    0.000000000e+00
     2452541544    1.037639454e-01    1.898010373e-01   -6.009735167e-03   -2.170230495e-03    0.000000000e+00    0.000000000e+00    0.000000000e+00    0.000000000e+00
     2452639296    1.061102599e-01    1.860418022e-01   -6.107275374e-03   -1.965691568e-03    0.000000000e+00    0.000000000e+00    0.000000000e+00    0.000000000e+00
     2452737048    1.078569293e-01    1.836430281e-01   -6.160764024e-03   -1.864225371e-03    0.000000000e+00    0.000000000e+00    0.000000000e+00    0.000000000e+00
     2452834800    1.061389372e-01    1.852921695e-01   -5.894075148e-03   -1.832828624e-03    0.000000000e+00    0.000000000e+00    0.000000000e+00    0.000000000e+00
     2452932551    1.061574072e-01    1.889010668e-01   -6.518130656e-03   -1.980130561e-03    0.000000000e+00    0.000000000e+00    0.000000000e+00    0.000000000e+00
     2453030303    1.070530117e-01    1.831786782e-01   -6.187575869e-03   -1.836389652e-03    0.000000000e+00    0.000000000e+00    0.000000000e+00    0.000000000e+00
     2453128055    1.064798161e-01    1.820301265e-01   -6.249526050e-03   -1.698516076e-03    0.000000000e+00    0.000000000e+00    0.000000000e+00    0.000000000e+00
     2453225806    1.116811037e-01    1.773526073e-01   -6.459563971e-03   -1.630180865e-03    0.000000000e+00    0.000000000e+00    0.000000000e+00    0.000000000e+00
     2453323558    1.080991104e-01    1.876796186e-01   -6.196360569e-03   -1.630663872e-03    0.000000000e+00    0.000000000e+00    0.000000000e+00    0.000000000e+00
     2453421310    1.110320911e-01    1.752979159e-01   -6.308362819e-03   -1.326961094e-03    0.000000000e+00    0.000000000e+00    0.000000000e+00    0.000000000e+00
     2453519062    1.069696844e-01    1.825319827e-01   -6.491846405e-03   -1.784173190e-03    0.000000000e+00    0.000000000e+00    0.000000000e+00    0.000000000e+00
     2453616813    1.110165194e-01    1.816296130e-01   -6.306690164e-03   -1.403791364e-03    0.000000000e+00    0.000000000e+00    0.000000000e+00    0.000000000e+00
     2453714565    1.130592450e-01    1.821572185e-01   -6.665024441e-03   -1.469530165e-03    0.000000000e+00    0.000000000e+00    0.000000000e+00    0.000000000e+00
     2453812317    1.087048575e-01    1.845347732e-01   -6.404597312e-03   -1.409852295e-03    0.000000000e+00    0.000000000e+00    0.000000000e+00    0.000000000e+00
     2453910068    1.097815558e-01    1.827743053e-01   -6.761781871e-03   -1.537601347e-03    0.000000000e+00    0.000000000e+00    0.000000000e+00    0.000000000e+00
     2454007820    1.103072688e-01    1.812928617e-01   -6.575978361e-03   -1.714469749e-03    0.000000000e+00    0.000000000e+00    0.000000000e+00    0.000000000e+00
     2454105572    1.144064739e-01    1.751694530e-01   -6.599344313e-03   -1.187830348e-03    0.000000000e+00    0.000000000e+00    0.000000000e+00    0.000000000e+00
     2454203324    1.127252877e-01    1.826291233e-01   -6.871542893e-03   -1.214378863e-03    0.000000000e+00    0.000000000e+00    0.000000000e+00    0.000000000e+00
     2454301075    1.099685133e-01    1.781625748e-01   -6.947613787e-03   -1.265934436e-03    0.000000000e+00    0.000000000e+00    0.000000000e+00    0.000000000e+00
     2454398827    1.136126295e-01    1.794814914e-01   -6.495271344e-03   -1.076976536e-03    0.000000000e+00    0.000000000e+00    0.000000000e+00    0.000000000e+00
     2454496579    1.135505065e-01    1.861377507e-01   -6.661808584e-03   -1.070523285e-03    0.000000000e+00    0.000000000e+00    0.000000000e+00    0.000000000e+00
     2454594330    1.164670885e-01    1.691911072e-01   -6.851252634e-03   -8.843232645e-04    0.000000000e+00    0.000000000e+00    0.000000000e+00    0.000000000e+00
     2454692082    1.159486398e-01    1.753448397e-01   -6.840496324e-03   -9.693968459e-04    0.000000000e+00    0.000000000e+00    0.000000000e+00    0.000000000e+00
     2454789834    1.136216819e-01    1.809320897e-01   -7.033382542e-03   -9.084533085e-04    0.000000000e+00    0.000000000e+00    0.000000000e+00    0.000000000e+00
     2454887586    1.151976287e-01    1.824395657e-01   -6.875576451e-03   -7.749627694e-04    0.000000000e+00    0.000000000e+00    0.000000000e+00    0.000000000e+00
     2454985337    1.173002422e-01    1.750575304e-01   -6.883223075e-03   -5.432242760e-04    0.000000000e+00    0.000000000e+00    0.000000000e+00    0.000000000e+00
     2455083089    1.159050316e-01    1.701481491e-01   -6.878013723e-03   -7.580306265e-04    0.000000000e+00    0.000000000e+00    0.000000000e+00    0.000000000e+00
     2455180841    1.182490885e-01    1.798848659e-01   -7.027242333e-03   -4.911648575e-04    0.000000000e+00    0.000000000e+00    0.000000000e+00    0.000000000e+00
     2455278592    1.163981557e-01    1.758397222e-01   -7.193337195e-03   -5.743167130e-04    0.000000000e+00    0.000000000e+00    0.000000000e+00    0.000000000e+00
     2455376344    1.171986386e-01    1.802266389e-01   -6.976043805e-03   -4.007085226e-04    0.000000000e+00    0.000000000e+00    0.000000000e+00    0.000000000e+00
     2455474096    1.179738864e-01    1.674261242e-01   -7.332642563e-03   -5.440187524e-04    0.000000000e+00    0.000000000e+00    0.000000000e+00    0.000000000e+00
     2455571848    1.202274114e-01    1.767123938e-01   -7.079179399e-03   -6.505848723e-04    0.000000000e+00    0.000000000e+00    0.000000000e+00    0.000000000e+00
     2455669599    1.185139343e-01    1.709614247e-01   -6.926191505e-03   -4.117184726e-04    0.000000000e+00    0.000000000e+00    0.000000000e+00    0.000000000e+00
     2455767351    1.192918569e-01    1.771342605e-01   -7.131310645e-03   -2.531681093e-04    0.000000000e+00    0.000000000e+00    0.000000000e+00    0.000000000e+00
     2455865103    1.173714176e-01    1.760388166e-01   -7.171980571e-03   -1.618872921e-04    0.000000000e+00    0.000000000e+00    0.000000000e+00    0.000000000e+00
     2455962854    1.202689484e-01    1.715401858e-01   -7.039546967e-03    1.079559570e-05    0.000000000e+00    0.000000000e+00    0.000000000e+00    0.000000000e+00
     2456060606    1.184147596e-01    1.737965792e-01   -7.114660461e-03    7.411953993e-05    0.000000000e+00    0.000000000e+00    0.000000000e+00    0.000000000e+00
     2456158358    1.192096770e-01    1.778090000e-01   -7.244409062e-03   -3.638180351e-05    0.000000000e+00    0.000000000e+00    0.000000000e+00    0.000000000e+00
     2456256109    1.236768365e-01    1.720607877e-01   -7.370042615e-03    2.216911671e-04    0.000000000e+00    0.000000000e+00    0.000000000e+00    0.000000000e+00
     2456353861    1.244177148e-01    1.744171083e-01   -6.953597534e-03    1.578489027e-04    0.000000000e+00    0.000000000e+00    0.000000000e+00    0.000000000e+00
     2456451613    1.215366125e-01    1.731167734e-01   -7.466138806e-03    1.268478372e-04    0.000000000e+00    0.000000000e+00    0.000000000e+00    0.000000000e+00
     2456549365    1.211485639e-01    1.761104912e-01   -7.396336645e-03    3.445017210e-04    0.000000000e+00    0.000000000e+00    0.000000000e+00    0.000000000e+00
     2456647116    1.207490116e-01    1.752747148e-01   -7.038458250e-03    2.842921822e-04    0.000000000e+00    0.000000000e+00    0.000000000e+00    0.000000000e+00
     2456744868    1.259778440e-01    1.698852479e-01   -7.289327215e-03    1.162189437e-04    0.000000000e+00    0.000000000e+00    0.000000000e+00    0.000000000e+00
     2456842620    1.242832690e-01    1.667692363e-01   -7.191905752e-03    2.939380065e-04    0.000000000e+00    0.000000000e+00    0.000000000e+00    0.000000000e+00
     2456940371    1.240405366e-01    1.679107398e-01   -7.347702980e-03    8.551326464e-04    0.000000000e+00    0.000000000e+00    0.000000000e+00    0.000000000e+00
     2457038123    1.237995327e-01    1.687037796e-01   -7.144661620e-03    5.913691130e-04    0.000000000e+00    0.000000000e+00    0.000000000e+00    0.000000000e+00
     2457135875    1.266706139e-01    1.700258851e-01   -7.393046282e-03    6.690084119e-04    0.000000000e+00    0.000000000e+00    0.000000000e+00    0.000000000e+00
     2457233627    1.219643727e-01    1.710408032e-01   -7.114072796e-03    5.778332124e-04    0.000000000e+00    0.000000000e+00    0.000000000e+00    0.000000000e+00
     2457331378    1.277647465e-01    1.649108678e-01   -7.556607947e-03    4.210419138e-04    0.000000000e+00    0.000000000e+00    0.000000000e+00    0.000000000e+00
     2457429130    1.214222908e-01    1.720441133e-01   -7.503962144e-03    1.019799965e-03    0.000000000e+00    0.000000000e+00    0.000000000e+00    0.000000000e+00
     2457526882    1.252319962e-01    1.794545352e-01   -7.125228643e-03    9.834293742e-04    0.000000000e+00    0.000000000e+00    0.000000000e+00    0.000000000e+00
     2457624633    1.251269728e-01    1.674041748e-01   -7.346986327e-03    1.376606408e-03    0.000000000e+00    0.000000000e+00    0.000000000e+00    0.000000000e+00
     2457722385    1.272088736e-01    1.687530577e-01   -7.290842012e-03    8.965860470e-04    0.000000000e+00    0.000000000e+00    0.000000000e+00    0.000000000e+00
     2457820137    1.255805790e-01    1.724396646e-01   -7.542798761e-03    9.519202285e-04    0.000000000e+00    0.000000000e+00    0.000000000e+00    0.000000000e+00
     2457917889    1.265825480e-01    1.706255525e-01   -7.500790525e-03    1.567694242e-03    0.000000000e+00    0.000000000e+00    0.000000000e+00    0.000000000e+00
     2458015640    1.310244054e-01    1.594232619e-01   -7.328571752e-03    1.289318083e-03    0.000000000e+00    0.000000000e+00    0.000000000e+00    0.000000000e+00
     2458113392    1.275959164e-01    1.643963903e-01   -7.324478589e-03    1.257305732e-03    0.000000000e+00    0.000000000e+00    0.000000000e+00    0.000000000e+00
     2458211144    1.251297146e-01    1.687065661e-01   -7.513702381e-03    1.248759916e-03    0.000000000e+00    0.000000000e+00    0.000000000e+00    0.000000000e+00
     2458308895    1.266530603e-01    1.649643034e-01   -7.374505978e-03    1.278966200e-03    0.000000000e+00    0.000000000e+00    0.000000000e+00    0.000000000e+00
     2458406647    1.308830976e-01    1.659915447e-01   -7.628564723e-03    1.551658148e-03    0.000000000e+00    0.000000000e+00    0.000000000e+00    0.000000000e+00
     2458504399    1.304491013e-01    1.680587977e-01   -7.274204399e-03    1.483654021e-03    0.000000000e+00    0.000000000e+00    0.000000000e+00    0.000000000e+00
     2458602151    1.301544607e-01    1.645317078e-01   -7.272722200e-03    1.875760034e-03    0.000000000e+00    0.000000000e+00    0.000000000e+00    0.000000000e+00
     2458699902    1.307056546e-01    1.655139178e-01   -7.409273181e-03    1.697957399e-03    0.000000000e+00    0.000000000e+00    0.000000000e+00    0.000000000e+00
     2458797654    1.326468438e-01    1.601656973e-01   -7.202826906e-03    1.896272064e-03    0.000000000e+00    0.000000000e+00    0.000000000e+00    0.000000000e+00
     2458895406    1.298171282e-01    1.672411263e-01   -7.124964613e-03    1.898168703e-03    0.000000000e+00    0.000000000e+00    0.000000000e+00    0.000000000e+00
     2458993157    1.309357882e-01    1.569485515e-01   -7.112254854e-03    2.006101422e-03    0.000000000e+00    0.000000000e+00    0.000000000e+00    0.000000000e+00
     2459090909    1.334041804e-01    1.658981591e-01   -7.290909532e-03    1.839637058e-03    0.000000000e+00    0.000000000e+00    0.000000000e+00    0.000000000e+00
     2459188661    1.349785924e-01    1.662100554e-01   -7.352995221e-03    1.824196894e-03    0.000000000e+00    0.000000000e+00    0.000000000e+00    0.000000000e+00
     2459286413    1.329246759e-01    1.588234156e-01   -6.896605715e-03    1.972493716e-03    0.000000000e+00    0.000000000e+00    0.000000000e+00    0.000000000e+00
     2459384164    1.338272989e-01    1.616400480e-01   -7.251863834e-03    2.013500780e-03    0.000000000e+00    0.000000000e+00    0.000000000e+00    0.000000000e+00
     2459481916    1.352524161e-01    1.627712548e-01   -7.017173339e-03    2.229615115e-03    0.000000000e+00    0.000000000e+00    0.000000000e+00    0.000000000e+00
     2459579668    1.359483302e-01    1.590146869e-01   -7.123653311e-03    2.184641548e-03    0.000000000e+00    0.000000000e+00    0.000000000e+00    0.000000000e+00
     2459677419    1.368927658e-01    1.597084999e-01   -7.237152196e-03    2.033784753e-03    0.000000000e+00    0.000000000e+00    0.000000000e+00    0.000000000e+00
     2459775171    1.353308409e-01    1.595851332e-01   -7.214940153e-03    2.645696979e-03    0.000000000e+00    0.000000000e+00    0.000000000e+00    0.000000000e+00
     2459872923    1.363045126e-01    1.615035832e-01   -6.935126614e-03    2.064595232e-03    0.000000000e+00    0.000000000e+00    0.000000000e+00    0.000000000e+00
     2459970674    1.381298900e-01    1.606556624e-01   -7.113748696e-03    2.336884383e-03    0.000000000e+00    0.000000000e+00    0.000000000e+00    0.000000000e+00
     2460068426    1.379780173e-01    1.637340188e-01   -6.943300366e-03    2.277177991e-03    0.000000000e+00    0.000000000e+00    0.000000000e+00    0.000000000e+00
     2460166178    1.362240165e-01    1.576621681e-01   -6.808859296e-03    2.539025387e-03    0.000000000e+00    0.000000000e+00    0.000000000e+00    0.000000000e+00
     2460263930    1.365741789e-01    1.554398835e-01   -7.215758320e-03    2.345962916e-03    0.000000000e+00    0.000000000e+00    0.000000000e+00    0.000000000e+00
     2460361681    1.373937130e-01    1.531547904e-01   -7.439102978e-03    2.494182438e-03    0.000000000e+00    0.000000000e+00    0.000000000e+00    0.000000000e+00
     2460459433    1.415222436e-01    1.607686579e-01   -7.007448468e-03    2.721875207e-03    0.000000000e+00    0.000000000e+00    0.000000000e+00    0.000000000e+00
     2460557185    1.367625147e-01    1.545821428e-01   -6.885848474e-03    2.769652754e-03    0.000000000e+00    0.000000000e+00    0.000000000e+00    0.000000000e+00
     2460654936    1.402620375e-01    1.504167616e-01   -6.923662499e-03    2.610947005e-03    0.000000000e+00    0.000000000e+00    0.000000000e+00    0.000000000e+00
     2460752688    1.375245303e-01    1.553521901e-01   -6.923638284e-03    3.102582879e-03    0.000000000e+00    0.000000000e+00    0.000000000e+00    0.000000000e+00
     2460850440    1.384241432e-01    1.605890244e-01   -6.724958308e-03    2.840822097e-03    0.000000000e+00    0.000000000e+00    0.000000000e+00    0.000000000e+00
     2460948192    1.407499760e-01    1.521101296e-01   -7.004337385e-03    2.510789316e-03    0.000000000e+00    0.000000000e+00    0.000000000e+00    0.000000000e+00
     2461045943    1.365220994e-01    1.681407541e-01   -7.101834286e-03    2.858254593e-03    0.000000000e+00    0.000000000e+00    0.000000000e+00    0.000000000e+00
     2461143695    1.411744803e-01    1.628130227e-01   -6.830877624e-03    2.918019891e-03    0.000000000e+00    0.000000000e+00    0.000000000e+00    0.000000000e+00
     2461241447    1.431412846e-01    1.543507874e-01   -6.630567368e-03    3.426931566e-03    0.000000000e+00    0.000000000e+00    0.000000000e+00    0.000000000e+00
