! NanoVNA-App
! Date: 2021-06-09 16:33:55
! Start: 136MHz Stop: 500MHz Points: 401
! S-Parameter data: F S11 S21 S12 S22
# Hz S RI R 50
!     Frequency           S11_Real           S11_Imag           S21_Real           S21_Imag           S12_Real           S12_Imag           S22_Real           S22_Imag
      136000000    6.607031822e-01    1.470174193e-01    7.561357925e-04    2.444802551e-03    0.000000000e+00    0.000000000e+00    0.000000000e+00    0.000000000e+00
      136910000    6.603257060e-01    1.479620934e-01    7.858536555e-04    2.258751774e-03    0.000000000e+00    0.000000000e+00    0.000000000e+00    0.000000000e+00
      137820000    6.601060629e-01    1.489114314e-01    9.310720488e-04    2.202404663e-03    0.000000000e+00    0.000000000e+00    0.000000000e+00    0.000000000e+00
      138730000    6.607749462e-01    1.498810500e-01    8.915419457e-04    2.333955606e-03    0.000000000e+00    0.000000000e+00    0.000000000e+00    0.000000000e+00
      139640000    6.615685821e-01    1.508562565e-01    8.742104401e-04    2.313343110e-03    0.000000000e+00    0.000000000e+00    0.000000000e+00    0.000000000e+00
      140550000    6.622521281e-01    1.517803073e-01    8.813215536e-04    2.419463592e-03    0.000000000e+00    0.000000000e+00    0.000000000e+00    0.000000000e+00
      141460000    6.623941660e-01    1.527108699e-01    9.289660375e-04    2.477605827e-03    0.000000000e+00    0.000000000e+00    0.000000000e+00    0.000000000e+00
      142370000    6.621173024e-01    1.535485238e-01    1.011221902e-03    2.535867970e-03    0.000000000e+00    0.000000000e+00    0.000000000e+00    0.000000000e+00
      143280000    6.616380811e-01    1.542945355e-01    1.106104231e-03    2.572931582e-03    0.000000000e+00    0.000000000e+00    0.000000000e+00    0.000000000e+00
      144190000    6.614891291e-01    1.550566554e-01    1.156216604e-03    2.639125800e-03    0.000000000e+00    0.000000000e+00    0.000000000e+00    0.000000000e+00
      145100000    6.614349484e-01    1.555800140e-01    1.173393801e-03    2.644439461e-03    0.000000000e+00    0.000000000e+00    0.000000000e+00    0.000000000e+00
      146010000    6.613332629e-01    1.562834382e-01    1.291422406e-03    2.755922033e-03    0.000000000e+00    0.000000000e+00    0.000000000e+00    0.000000000e+00
      146920000    6.613014340e-01    1.570976526e-01    1.378782676e-03    2.764457604e-03    0.000000000e+00    0.000000000e+00    0.000000000e+00    0.000000000e+00
      147830000    6.611781120e-01    1.579689234e-01    1.467923983e-03    2.791068750e-03    0.000000000e+00    0.000000000e+00    0.000000000e+00    0.000000000e+00
      148740000    6.612708569e-01    1.590393037e-01    1.561935060e-03    2.876139944e-03    0.000000000e+00    0.000000000e+00    0.000000000e+00    0.000000000e+00
      149650000    6.610980034e-01    1.598261297e-01    1.661953516e-03    2.888942370e-03    0.000000000e+00    0.000000000e+00    0.000000000e+00    0.000000000e+00
      150560000    6.609915495e-01    1.604982316e-01    1.806991524e-03    2.938986756e-03    0.000000000e+00    0.000000000e+00    0.000000000e+00    0.000000000e+00
      151470000    6.610078216e-01    1.612873673e-01    1.969353063e-03    2.933908952e-03    0.000000000e+00    0.000000000e+00    0.000000000e+00    0.000000000e+00
      152380000    6.607448459e-01    1.620669216e-01    2.052528784e-03    2.915133489e-03    0.000000000e+00    0.000000000e+00    0.000000000e+00    0.000000000e+00
      153290000    6.606993675e-01    1.628301144e-01    2.197213704e-03    2.922550309e-03    0.000000000e+00    0.000000000e+00    0.000000000e+00    0.000000000e+00
      154200000    6.605842113e-01    1.636248827e-01    2.356784185e-03    2.941974439e-03    0.000000000e+00    0.000000000e+00    0.000000000e+00    0.000000000e+00
      155110000    6.604605317e-01    1.644745022e-01    2.467437182e-03    2.894551260e-03    0.000000000e+00    0.000000000e+00    0.000000000e+00    0.000000000e+00
      156020000    6.601347327e-01    1.653825045e-01    2.588212723e-03    2.867479110e-03    0.000000000e+00    0.000000000e+00    0.000000000e+00    0.000000000e+00
      156930000    6.600233316e-01    1.661533117e-01    2.732863883e-03    2.811218379e-03    0.000000000e+00    0.000000000e+00    0.000000000e+00    0.000000000e+00
      157840000    6.597838998e-01    1.670235693e-01    2.869488904e-03    2.733209403e-03    0.000000000e+00    0.000000000e+00    0.000000000e+00    0.000000000e+00
      158750000    6.598106027e-01    1.680507958e-01    3.008237109e-03    2.626046538e-03    0.000000000e+00    0.000000000e+00    0.000000000e+00    0.000000000e+00
      159660000    6.597566009e-01    1.688712537e-01    3.096843837e-03    2.545200288e-03    0.000000000e+00    0.000000000e+00    0.000000000e+00    0.000000000e+00
      160570000    6.597319245e-01    1.696619689e-01    3.145962255e-03    2.467382932e-03    0.000000000e+00    0.000000000e+00    0.000000000e+00    0.000000000e+00
      161480000    6.595652103e-01    1.704885811e-01    3.287593368e-03    2.281802939e-03    0.000000000e+00    0.000000000e+00    0.000000000e+00    0.000000000e+00
      162390000    6.590886712e-01    1.712690890e-01    3.322630888e-03    2.135583665e-03    0.000000000e+00    0.000000000e+00    0.000000000e+00    0.000000000e+00
      163300000    6.587451100e-01    1.721042246e-01    3.353893757e-03    2.009833930e-03    0.000000000e+00    0.000000000e+00    0.000000000e+00    0.000000000e+00
      164210000    6.584464908e-01    1.729220897e-01    3.344966564e-03    1.901655807e-03    0.000000000e+00    0.000000000e+00    0.000000000e+00    0.000000000e+00
      165120000    6.585693955e-01    1.740279943e-01    3.449965967e-03    1.728916424e-03    0.000000000e+00    0.000000000e+00    0.000000000e+00    0.000000000e+00
      166030000    6.586501598e-01    1.749744266e-01    3.371799365e-03    1.586847357e-03    0.000000000e+00    0.000000000e+00    0.000000000e+00    0.000000000e+00
      166940000    6.586605310e-01    1.758228987e-01    3.352435073e-03    1.498137950e-03    0.000000000e+00    0.000000000e+00    0.000000000e+00    0.000000000e+00
      167850000    6.586344838e-01    1.765697151e-01    3.332451452e-03    1.344813034e-03    0.000000000e+00    0.000000000e+00    0.000000000e+00    0.000000000e+00
      168760000    6.586292982e-01    1.775040030e-01    3.287182422e-03    1.268816763e-03    0.000000000e+00    0.000000000e+00    0.000000000e+00    0.000000000e+00
      169670000    6.584553123e-01    1.782521307e-01    3.237345023e-03    1.172750024e-03    0.000000000e+00    0.000000000e+00    0.000000000e+00    0.000000000e+00
      170580000    6.583707333e-01    1.789348423e-01    3.200203413e-03    1.039001858e-03    0.000000000e+00    0.000000000e+00    0.000000000e+00    0.000000000e+00
      171490000    6.583199501e-01    1.793873310e-01    3.132478334e-03    1.008628169e-03    0.000000000e+00    0.000000000e+00    0.000000000e+00    0.000000000e+00
      172400000    6.581048369e-01    1.800778657e-01    3.000099445e-03    9.212903678e-04    0.000000000e+00    0.000000000e+00    0.000000000e+00    0.000000000e+00
      173310000    6.578113437e-01    1.809058338e-01    2.978693461e-03    8.733600844e-04    0.000000000e+00    0.000000000e+00    0.000000000e+00    0.000000000e+00
      174220000    6.577525735e-01    1.819312125e-01    2.891857876e-03    8.002188406e-04    0.000000000e+00    0.000000000e+00    0.000000000e+00    0.000000000e+00
      175130000    6.576061845e-01    1.828800738e-01    2.842882881e-03    7.667769096e-04    0.000000000e+00    0.000000000e+00    0.000000000e+00    0.000000000e+00
      176040000    6.575248837e-01    1.836972982e-01    2.754719229e-03    6.938705919e-04    0.000000000e+00    0.000000000e+00    0.000000000e+00    0.000000000e+00
      176950000    6.573942304e-01    1.844572574e-01    2.701742342e-03    6.583703216e-04    0.000000000e+00    0.000000000e+00    0.000000000e+00    0.000000000e+00
      177860000    6.573574543e-01    1.848457009e-01    2.639951184e-03    6.272231694e-04    0.000000000e+00    0.000000000e+00    0.000000000e+00    0.000000000e+00
      178770000    6.574770212e-01    1.854360998e-01    2.578243613e-03    6.699648802e-04    0.000000000e+00    0.000000000e+00    0.000000000e+00    0.000000000e+00
      179680000    6.573216915e-01    1.861204058e-01    2.509079874e-03    7.175334613e-04    0.000000000e+00    0.000000000e+00    0.000000000e+00    0.000000000e+00
      180590000    6.562216878e-01    1.866808236e-01    2.419859869e-03    1.026968239e-03    0.000000000e+00    0.000000000e+00    0.000000000e+00    0.000000000e+00
      181500000    6.570368409e-01    1.878807694e-01    2.630218863e-03    5.867270520e-04    0.000000000e+00    0.000000000e+00    0.000000000e+00    0.000000000e+00
      182410000    6.567711830e-01    1.885051429e-01    2.432056470e-03    5.694308202e-04    0.000000000e+00    0.000000000e+00    0.000000000e+00    0.000000000e+00
      183320000    6.565686464e-01    1.891987920e-01    2.396727912e-03    6.231284351e-04    0.000000000e+00    0.000000000e+00    0.000000000e+00    0.000000000e+00
      184230000    6.563246250e-01    1.898323596e-01    2.296608640e-03    5.943762371e-04    0.000000000e+00    0.000000000e+00    0.000000000e+00    0.000000000e+00
      185140000    6.561117172e-01    1.906103939e-01    2.238020767e-03    6.118605379e-04    0.000000000e+00    0.000000000e+00    0.000000000e+00    0.000000000e+00
      186050000    6.562393308e-01    1.914633363e-01    2.199905692e-03    5.836411146e-04    0.000000000e+00    0.000000000e+00    0.000000000e+00    0.000000000e+00
      186960000    6.562561393e-01    1.923095435e-01    2.083311323e-03    5.761742359e-04    0.000000000e+00    0.000000000e+00    0.000000000e+00    0.000000000e+00
      187870000    6.561202407e-01    1.930643022e-01    2.117005177e-03    6.154274452e-04    0.000000000e+00    0.000000000e+00    0.000000000e+00    0.000000000e+00
      188780000    6.560097933e-01    1.938252449e-01    2.038995037e-03    6.053142715e-04    0.000000000e+00    0.000000000e+00    0.000000000e+00    0.000000000e+00
      189690000    6.558960080e-01    1.945181787e-01    2.034778940e-03    6.666114205e-04    0.000000000e+00    0.000000000e+00    0.000000000e+00    0.000000000e+00
      190600000    6.556878090e-01    1.952850670e-01    1.927579637e-03    6.061379099e-04    0.000000000e+00    0.000000000e+00    0.000000000e+00    0.000000000e+00
      191510000    6.554211974e-01    1.957314312e-01    1.933770254e-03    7.094664034e-04    0.000000000e+00    0.000000000e+00    0.000000000e+00    0.000000000e+00
      192420000    6.553142667e-01    1.964714676e-01    1.917856396e-03    7.206828450e-04    0.000000000e+00    0.000000000e+00    0.000000000e+00    0.000000000e+00
      193330000    6.550057530e-01    1.971923113e-01    1.871502143e-03    7.409963291e-04    0.000000000e+00    0.000000000e+00    0.000000000e+00    0.000000000e+00
      194240000    6.550436616e-01    1.980082691e-01    1.810989343e-03    7.661135169e-04    0.000000000e+00    0.000000000e+00    0.000000000e+00    0.000000000e+00
      195150000    6.548926830e-01    1.988012195e-01    1.771864481e-03    8.559314883e-04    0.000000000e+00    0.000000000e+00    0.000000000e+00    0.000000000e+00
      196060000    6.545965672e-01    1.995437890e-01    1.749477815e-03    8.130288334e-04    0.000000000e+00    0.000000000e+00    0.000000000e+00    0.000000000e+00
      196970000    6.546937823e-01    2.002442479e-01    1.759984414e-03    7.919362397e-04    0.000000000e+00    0.000000000e+00    0.000000000e+00    0.000000000e+00
      197880000    6.547634602e-01    2.007643133e-01    1.732962439e-03    8.022110560e-04    0.000000000e+00    0.000000000e+00    0.000000000e+00    0.000000000e+00
      198790000    6.547254324e-01    2.012833953e-01    1.684765914e-03    9.040560108e-04    0.000000000e+00    0.000000000e+00    0.000000000e+00    0.000000000e+00
      199700000    6.545662880e-01    2.019540966e-01    1.734081306e-03    9.021395235e-04    0.000000000e+00    0.000000000e+00    0.000000000e+00    0.000000000e+00
      200610000    6.544278264e-01    2.025599778e-01    1.687616459e-03    9.633165901e-04    0.000000000e+00    0.000000000e+00    0.000000000e+00    0.000000000e+00
      201520000    6.543107629e-01    2.031131238e-01    1.610299689e-03    9.389445768e-04    0.000000000e+00    0.000000000e+00    0.000000000e+00    0.000000000e+00
      202430000    6.541653872e-01    2.038830668e-01    1.572346082e-03    1.048373757e-03    0.000000000e+00    0.000000000e+00    0.000000000e+00    0.000000000e+00
      203340000    6.540817618e-01    2.043576241e-01    1.598677831e-03    1.024076366e-03    0.000000000e+00    0.000000000e+00    0.000000000e+00    0.000000000e+00
      204250000    6.536833048e-01    2.048213929e-01    1.540858066e-03    1.087610144e-03    0.000000000e+00    0.000000000e+00    0.000000000e+00    0.000000000e+00
      205160000    6.536007524e-01    2.056181133e-01    1.555312308e-03    1.154920436e-03    0.000000000e+00    0.000000000e+00    0.000000000e+00    0.000000000e+00
      206070000    6.533220410e-01    2.065094709e-01    1.572730485e-03    1.134690014e-03    0.000000000e+00    0.000000000e+00    0.000000000e+00    0.000000000e+00
      206980000    6.527868509e-01    2.074630558e-01    1.607180689e-03    1.171868644e-03    0.000000000e+00    0.000000000e+00    0.000000000e+00    0.000000000e+00
      207890000    6.527637243e-01    2.084462047e-01    1.564269885e-03    1.117292210e-03    0.000000000e+00    0.000000000e+00    0.000000000e+00    0.000000000e+00
      208800000    6.526502371e-01    2.093028575e-01    1.584369922e-03    1.192065654e-03    0.000000000e+00    0.000000000e+00    0.000000000e+00    0.000000000e+00
      209710000    6.525508761e-01    2.100744992e-01    1.513085328e-03    1.204170170e-03    0.000000000e+00    0.000000000e+00    0.000000000e+00    0.000000000e+00
      210620000    6.526667476e-01    2.108801156e-01    1.527986838e-03    1.231874921e-03    0.000000000e+00    0.000000000e+00    0.000000000e+00    0.000000000e+00
      211530000    6.525843740e-01    2.113647908e-01    1.500985934e-03    1.276349300e-03    0.000000000e+00    0.000000000e+00    0.000000000e+00    0.000000000e+00
      212440000    6.523301601e-01    2.120486051e-01    1.532716444e-03    1.327652484e-03    0.000000000e+00    0.000000000e+00    0.000000000e+00    0.000000000e+00
      213350000    6.520580649e-01    2.123441696e-01    1.495847479e-03    1.307812170e-03    0.000000000e+00    0.000000000e+00    0.000000000e+00    0.000000000e+00
      214260000    6.519480348e-01    2.129294723e-01    1.466889167e-03    1.360678230e-03    0.000000000e+00    0.000000000e+00    0.000000000e+00    0.000000000e+00
      215170000    6.515957117e-01    2.136756331e-01    1.412268612e-03    1.408151002e-03    0.000000000e+00    0.000000000e+00    0.000000000e+00    0.000000000e+00
      216080000    6.516328454e-01    2.146144211e-01    1.421784866e-03    1.449794392e-03    0.000000000e+00    0.000000000e+00    0.000000000e+00    0.000000000e+00
      216990000    6.513090134e-01    2.151919454e-01    1.396542415e-03    1.473153476e-03    0.000000000e+00    0.000000000e+00    0.000000000e+00    0.000000000e+00
      217900000    6.511136293e-01    2.158404440e-01    1.405488118e-03    1.504231128e-03    0.000000000e+00    0.000000000e+00    0.000000000e+00    0.000000000e+00
      218810000    6.510952115e-01    2.161575854e-01    1.402855152e-03    1.548442757e-03    0.000000000e+00    0.000000000e+00    0.000000000e+00    0.000000000e+00
      219720000    6.510232091e-01    2.167698443e-01    1.316293143e-03    1.575962291e-03    0.000000000e+00    0.000000000e+00    0.000000000e+00    0.000000000e+00
      220630000    6.508690119e-01    2.176855356e-01    1.408495824e-03    1.682270668e-03    0.000000000e+00    0.000000000e+00    0.000000000e+00    0.000000000e+00
      221540000    6.503988504e-01    2.185431719e-01    1.356845722e-03    1.656816923e-03    0.000000000e+00    0.000000000e+00    0.000000000e+00    0.000000000e+00
      222450000    6.501753330e-01    2.196218073e-01    1.319985837e-03    1.723170397e-03    0.000000000e+00    0.000000000e+00    0.000000000e+00    0.000000000e+00
      223360000    6.498175859e-01    2.203801572e-01    1.343374141e-03    1.799843623e-03    0.000000000e+00    0.000000000e+00    0.000000000e+00    0.000000000e+00
      224270000    6.496371031e-01    2.209023684e-01    1.268619904e-03    1.811192487e-03    0.000000000e+00    0.000000000e+00    0.000000000e+00    0.000000000e+00
      225180000    6.496303082e-01    2.214409560e-01    1.303753816e-03    1.862922800e-03    0.000000000e+00    0.000000000e+00    0.000000000e+00    0.000000000e+00
      226090000    6.494811177e-01    2.219913006e-01    1.345661003e-03    1.849726192e-03    0.000000000e+00    0.000000000e+00    0.000000000e+00    0.000000000e+00
      227000000    6.493719220e-01    2.225387096e-01    1.244416810e-03    1.901805983e-03    0.000000000e+00    0.000000000e+00    0.000000000e+00    0.000000000e+00
      227910000    6.494331360e-01    2.232567817e-01    1.326895785e-03    2.008256502e-03    0.000000000e+00    0.000000000e+00    0.000000000e+00    0.000000000e+00
      228820000    6.492660642e-01    2.239843756e-01    1.278550830e-03    2.041174332e-03    0.000000000e+00    0.000000000e+00    0.000000000e+00    0.000000000e+00
      229730000    6.490765810e-01    2.247425616e-01    1.305807382e-03    2.100215061e-03    0.000000000e+00    0.000000000e+00    0.000000000e+00    0.000000000e+00
      230640000    6.488000751e-01    2.256094664e-01    1.302946708e-03    2.191300737e-03    0.000000000e+00    0.000000000e+00    0.000000000e+00    0.000000000e+00
      231550000    6.484500766e-01    2.262994498e-01    1.331137959e-03    2.152048517e-03    0.000000000e+00    0.000000000e+00    0.000000000e+00    0.000000000e+00
      232460000    6.482233405e-01    2.267971337e-01    1.327338512e-03    2.200555988e-03    0.000000000e+00    0.000000000e+00    0.000000000e+00    0.000000000e+00
      233370000    6.479692459e-01    2.272060066e-01    1.346195233e-03    2.208896214e-03    0.000000000e+00    0.000000000e+00    0.000000000e+00    0.000000000e+00
      234280000    6.477949619e-01    2.276313007e-01    1.339682727e-03    2.216543537e-03    0.000000000e+00    0.000000000e+00    0.000000000e+00    0.000000000e+00
      235190000    6.476588845e-01    2.283768058e-01    1.285443897e-03    2.240849892e-03    0.000000000e+00    0.000000000e+00    0.000000000e+00    0.000000000e+00
      236100000    6.476686597e-01    2.291664332e-01    1.351763261e-03    2.343547763e-03    0.000000000e+00    0.000000000e+00    0.000000000e+00    0.000000000e+00
      237010000    6.476016641e-01    2.299175858e-01    1.277130679e-03    2.432655776e-03    0.000000000e+00    0.000000000e+00    0.000000000e+00    0.000000000e+00
      237920000    6.474515200e-01    2.305131108e-01    1.275227871e-03    2.415246796e-03    0.000000000e+00    0.000000000e+00    0.000000000e+00    0.000000000e+00
      238830000    6.474308968e-01    2.313649058e-01    1.288670697e-03    2.430554014e-03    0.000000000e+00    0.000000000e+00    0.000000000e+00    0.000000000e+00
      239740000    6.471551657e-01    2.321667373e-01    1.332289306e-03    2.523488598e-03    0.000000000e+00    0.000000000e+00    0.000000000e+00    0.000000000e+00
      240650000    6.469654441e-01    2.328019291e-01    1.236234908e-03    2.582197776e-03    0.000000000e+00    0.000000000e+00    0.000000000e+00    0.000000000e+00
