! NanoVNA-App
! Date: 2021-06-09 16:33:55
! Start: 2.2GHz Stop: 2.6GHz Points: 201
! S-Parameter data: F S11 S21 S12 S22
# Hz S RI R 50
!     Frequency           S11_Real           S11_Imag           S21_Real           S21_Imag           S12_Real           S12_Imag           S22_Real           S22_Imag
     2200000000   -4.006359279e-01    2.418210059e-01    1.882032305e-02    4.536435008e-03    0.000000000e+00    0.000000000e+00    0.000000000e+00    0.000000000e+00
     2202000000   -3.823592365e-01    2.595712841e-01    7.665903773e-03    1.488048397e-02    0.000000000e+00    0.000000000e+00    0.000000000e+00    0.000000000e+00
     2204000000   -3.621524572e-01    2.794556618e-01    1.085089147e-02    4.127352964e-03    0.000000000e+00    0.000000000e+00    0.000000000e+00    0.000000000e+00
     2206000000   -3.469000757e-01    2.955055833e-01    1.305886637e-02    1.560794096e-02    0.000000000e+00    0.000000000e+00    0.000000000e+00    0.000000000e+00
     2208000000   -3.261047006e-01    3.134136200e-01    2.799768187e-02    1.407379936e-02    0.000000000e+00    0.000000000e+00    0.000000000e+00    0.000000000e+00
     2210000000   -3.091681600e-01    3.267391026e-01    2.240073122e-02    3.518234240e-03    0.000000000e+00    0.000000000e+00    0.000000000e+00    0.000000000e+00
     2212000000   -2.944862545e-01    3.361201286e-01    1.599773578e-02    5.459680688e-03    0.000000000e+00    0.000000000e+00    0.000000000e+00    0.000000000e+00
     2214000000   -2.758236527e-01    3.494463861e-01    1.020305883e-02    2.858495107e-03    0.000000000e+00    0.000000000e+00    0.000000000e+00    0.000000000e+00
     2216000000   -2.492661178e-01    3.603992164e-01    1.384570915e-02    9.012834169e-03    0.000000000e+00    0.000000000e+00    0.000000000e+00    0.000000000e+00
     2218000000   -2.293404937e-01    3.699251115e-01    1.983148977e-02    6.475252565e-03    0.000000000e+00    0.000000000e+00    0.000000000e+00    0.000000000e+00
     2220000000   -2.125190198e-01    3.803056479e-01    1.744765602e-02    3.708071308e-03    0.000000000e+00    0.000000000e+00    0.000000000e+00    0.000000000e+00
     2222000000   -1.920681149e-01    3.885835409e-01    1.463081967e-02    3.803465050e-03    0.000000000e+00    0.000000000e+00    0.000000000e+00    0.000000000e+00
     2224000000   -1.688650399e-01    3.945388496e-01    1.112633385e-02    2.571980655e-02    0.000000000e+00    0.000000000e+00    0.000000000e+00    0.000000000e+00
     2226000000   -1.464405060e-01    3.983771503e-01    2.681226470e-02    1.343079470e-02    0.000000000e+00    0.000000000e+00    0.000000000e+00    0.000000000e+00
     2228000000   -1.267858893e-01    4.021359980e-01    2.287350222e-02    1.629901677e-02    0.000000000e+00    0.000000000e+00    0.000000000e+00    0.000000000e+00
     2230000000   -1.051154286e-01    4.053108096e-01    1.190338191e-02    1.484722365e-02    0.000000000e+00    0.000000000e+00    0.000000000e+00    0.000000000e+00
     2232000000   -8.522451669e-02    4.065111279e-01    5.750932731e-03    9.277391247e-03    0.000000000e+00    0.000000000e+00    0.000000000e+00    0.000000000e+00
     2234000000   -6.375495344e-02    4.046828449e-01    2.501031756e-02    7.142977789e-03    0.000000000e+00    0.000000000e+00    0.000000000e+00    0.000000000e+00
     2236000000   -4.785592854e-02    4.042215347e-01    1.098517235e-02    2.221314237e-02    0.000000000e+00    0.000000000e+00    0.000000000e+00    0.000000000e+00
     2238000000   -2.416878566e-02    3.982574046e-01    2.028311789e-02    1.792968623e-02    0.000000000e+00    0.000000000e+00    0.000000000e+00    0.000000000e+00
     2240000000   -1.037423499e-02    3.972854018e-01    1.779498346e-02    2.127051167e-02    0.000000000e+00    0.000000000e+00    0.000000000e+00    0.000000000e+00
     2242000000    1.039076131e-02    3.896490037e-01    1.279618405e-02    1.625571772e-02    0.000000000e+00    0.000000000e+00    0.000000000e+00    0.000000000e+00
     2244000000    2.250167541e-02    3.873839676e-01    2.478560060e-02    2.274808846e-02    0.000000000e+00    0.000000000e+00    0.000000000e+00    0.000000000e+00
     2246000000    3.912987188e-02    3.807470798e-01    2.207559347e-02    2.134968154e-02    0.000000000e+00    0.000000000e+00    0.000000000e+00    0.000000000e+00
     2248000000    5.917683989e-02    3.766936958e-01    2.260120213e-02    1.955275796e-02    0.000000000e+00    0.000000000e+00    0.000000000e+00    0.000000000e+00
     2250000000    7.590742409e-02    3.738092184e-01    2.348419465e-02    8.443921804e-03    0.000000000e+00    0.000000000e+00    0.000000000e+00    0.000000000e+00
     2252000000    9.015659243e-02    3.627619445e-01    1.495699026e-02    1.572815888e-02    0.000000000e+00    0.000000000e+00    0.000000000e+00    0.000000000e+00
     2254000000    1.056129113e-01    3.537634909e-01    1.062001940e-02    7.673533168e-03    0.000000000e+00    0.000000000e+00    0.000000000e+00    0.000000000e+00
     2256000000    1.188831627e-01    3.443332911e-01    4.651554395e-03    1.108627580e-02    0.000000000e+00    0.000000000e+00    0.000000000e+00    0.000000000e+00
     2258000000    1.319115013e-01    3.315355778e-01    1.800332591e-02    7.609302644e-03    0.000000000e+00    0.000000000e+00    0.000000000e+00    0.000000000e+00
     2260000000    1.484141648e-01    3.184986413e-01    1.356447302e-02    1.460712589e-02    0.000000000e+00    0.000000000e+00    0.000000000e+00    0.000000000e+00
     2262000000    1.535074115e-01    3.137219548e-01    2.202067152e-02    6.994348951e-03    0.000000000e+00    0.000000000e+00    0.000000000e+00    0.000000000e+00
     2264000000    1.588905156e-01    3.044827878e-01    2.316616476e-03    1.493740547e-02    0.000000000e+00    0.000000000e+00    0.000000000e+00    0.000000000e+00
     2266000000    1.703400910e-01    2.899423242e-01    1.498941518e-02    5.608984269e-03    0.000000000e+00    0.000000000e+00    0.000000000e+00    0.000000000e+00
     2268000000    1.771732420e-01    2.755945623e-01    7.757684682e-03    1.382828970e-02    0.000000000e+00    0.000000000e+00    0.000000000e+00    0.000000000e+00
     2270000000    1.857212186e-01    2.639771104e-01    1.089306548e-02    1.956116036e-02    0.000000000e+00    0.000000000e+00    0.000000000e+00    0.000000000e+00
     2272000000    1.892099530e-01    2.571834922e-01    1.516848616e-02    1.428326219e-02    0.000000000e+00    0.000000000e+00    0.000000000e+00    0.000000000e+00
     2274000000    1.975198239e-01    2.456811517e-01    1.391284820e-02    1.299643517e-02    0.000000000e+00    0.000000000e+00    0.000000000e+00    0.000000000e+00
     2276000000    2.047262490e-01    2.330448776e-01    1.540286187e-02    1.613221318e-02    0.000000000e+00    0.000000000e+00    0.000000000e+00    0.000000000e+00
     2278000000    2.088618875e-01    2.285067290e-01    2.379986830e-02    8.463819511e-03    0.000000000e+00    0.000000000e+00    0.000000000e+00    0.000000000e+00
     2280000000    2.097626626e-01    2.132067233e-01    4.151259549e-03    1.445446908e-02    0.000000000e+00    0.000000000e+00    0.000000000e+00    0.000000000e+00
     2282000000    2.165988237e-01    1.966940761e-01    8.980661631e-03    1.748187840e-02    0.000000000e+00    0.000000000e+00    0.000000000e+00    0.000000000e+00
     2284000000    2.129553407e-01    1.929538548e-01    1.041770168e-02    6.092989352e-03    0.000000000e+00    0.000000000e+00    0.000000000e+00    0.000000000e+00
     2286000000    2.137638927e-01    1.783216149e-01    7.047458086e-03    2.057321928e-02    0.000000000e+00    0.000000000e+00    0.000000000e+00    0.000000000e+00
     2288000000    2.152548134e-01    1.713222265e-01    9.564115666e-03    7.740231231e-03    0.000000000e+00    0.000000000e+00    0.000000000e+00    0.000000000e+00
     2290000000    2.174841613e-01    1.700656414e-01    1.723243482e-02    2.157881670e-02    0.000000000e+00    0.000000000e+00    0.000000000e+00    0.000000000e+00
     2292000000    2.186243087e-01    1.608181298e-01    1.604399830e-02    1.759374328e-02    0.000000000e+00    0.000000000e+00    0.000000000e+00    0.000000000e+00
     2294000000    2.221554816e-01    1.520735919e-01    9.218810126e-03    1.671455055e-02    0.000000000e+00    0.000000000e+00    0.000000000e+00    0.000000000e+00
     2296000000    2.218144834e-01    1.507764459e-01   -3.363410360e-04    1.447825134e-02    0.000000000e+00    0.000000000e+00    0.000000000e+00    0.000000000e+00
     2298000000    2.211481780e-01    1.365901977e-01    1.542809606e-02    1.638170145e-02    0.000000000e+00    0.000000000e+00    0.000000000e+00    0.000000000e+00
     2300000000    2.206792384e-01    1.223693639e-01    7.721613627e-03    4.890511744e-03    0.000000000e+00    0.000000000e+00    0.000000000e+00    0.000000000e+00
     2302000000    2.161162049e-01    1.198000982e-01    1.422740985e-02    1.724774204e-02    0.000000000e+00    0.000000000e+00    0.000000000e+00    0.000000000e+00
     2304000000    2.156629860e-01    1.016570330e-01    7.514362223e-03    2.337396145e-02    0.000000000e+00    0.000000000e+00    0.000000000e+00    0.000000000e+00
     2306000000    2.142736912e-01    9.882460535e-02    1.174697746e-02    2.614343539e-02    0.000000000e+00    0.000000000e+00    0.000000000e+00    0.000000000e+00
     2308000000    2.104139030e-01    9.219582379e-02    1.472330745e-02    2.284359373e-02    0.000000000e+00    0.000000000e+00    0.000000000e+00    0.000000000e+00
     2310000000    2.073201984e-01    8.831585199e-02    1.316216774e-02    2.263369597e-02    0.000000000e+00    0.000000000e+00    0.000000000e+00    0.000000000e+00
     2312000000    2.042187154e-01    8.458305150e-02    3.595338902e-03    1.200874709e-02    0.000000000e+00    0.000000000e+00    0.000000000e+00    0.000000000e+00
     2314000000    2.012856156e-01    8.153600246e-02    1.063261833e-02    2.821908565e-03    0.000000000e+00    0.000000000e+00    0.000000000e+00    0.000000000e+00
     2316000000    1.979208589e-01    8.250124753e-02    1.693150843e-03    2.257412113e-02    0.000000000e+00    0.000000000e+00    0.000000000e+00    0.000000000e+00
     2318000000    1.940918416e-01    7.506179810e-02    9.269407019e-03    2.255026810e-02    0.000000000e+00    0.000000000e+00    0.000000000e+00    0.000000000e+00
     2320000000    1.937156618e-01    7.606719434e-02   -1.016304013e-03    1.438938919e-02    0.000000000e+00    0.000000000e+00    0.000000000e+00    0.000000000e+00
     2322000000    1.941076964e-01    6.936780363e-02    5.328787025e-03    2.545678057e-02    0.000000000e+00    0.000000000e+00    0.000000000e+00    0.000000000e+00
     2324000000    1.950372756e-01    7.565449178e-02    5.519922357e-03    2.912827581e-02    0.000000000e+00    0.000000000e+00    0.000000000e+00    0.000000000e+00
     2326000000    1.932516843e-01    6.537223607e-02    7.759636734e-03    2.038560994e-02    0.000000000e+00    0.000000000e+00    0.000000000e+00    0.000000000e+00
     2328000000    1.931240857e-01    6.725662202e-02   -4.947313573e-03    1.859014668e-02    0.000000000e+00    0.000000000e+00    0.000000000e+00    0.000000000e+00
     2330000000    1.918563545e-01    7.175655663e-02    5.358851515e-03    2.593602799e-02    0.000000000e+00    0.000000000e+00    0.000000000e+00    0.000000000e+00
     2332000000    1.925473213e-01    6.374610215e-02    2.952946350e-03    2.160899155e-02    0.000000000e+00    0.000000000e+00    0.000000000e+00    0.000000000e+00
     2334000000    1.930426657e-01    6.374330074e-02    9.965555742e-03    1.743504964e-02    0.000000000e+00    0.000000000e+00    0.000000000e+00    0.000000000e+00
     2336000000    1.938297898e-01    5.830150098e-02   -1.158193452e-03    2.121192031e-02    0.000000000e+00    0.000000000e+00    0.000000000e+00    0.000000000e+00
     2338000000    1.961704642e-01    6.303180754e-02    7.436174434e-03    2.180308849e-02    0.000000000e+00    0.000000000e+00    0.000000000e+00    0.000000000e+00
     2340000000    1.952393800e-01    6.153328717e-02    4.251607694e-03    2.025156096e-02    0.000000000e+00    0.000000000e+00    0.000000000e+00    0.000000000e+00
     2342000000    1.966203600e-01    5.570323393e-02   -2.810335718e-03    2.285536937e-02    0.000000000e+00    0.000000000e+00    0.000000000e+00    0.000000000e+00
     2344000000    2.006260157e-01    5.341543257e-02    4.443254322e-03    2.199323475e-02    0.000000000e+00    0.000000000e+00    0.000000000e+00    0.000000000e+00
     2346000000    2.019096613e-01    5.118484795e-02    8.487757295e-04    3.264614195e-02    0.000000000e+00    0.000000000e+00    0.000000000e+00    0.000000000e+00
     2348000000    2.005216628e-01    4.532099515e-02   -5.914922222e-04    2.695349604e-02    0.000000000e+00    0.000000000e+00    0.000000000e+00    0.000000000e+00
     2350000000    2.051275820e-01    3.690642864e-02    1.114846859e-02    9.903430939e-03    0.000000000e+00    0.000000000e+00    0.000000000e+00    0.000000000e+00
     2352000000    2.065937370e-01    4.271201417e-02    9.354043752e-03    2.274318226e-02    0.000000000e+00    0.000000000e+00    0.000000000e+00    0.000000000e+00
     2354000000    2.098441720e-01    3.629736602e-02    8.668986266e-05    2.647435106e-02    0.000000000e+00    0.000000000e+00    0.000000000e+00    0.000000000e+00
     2356000000    2.110723704e-01    2.695391700e-02    1.244676881e-03    2.142986469e-02    0.000000000e+00    0.000000000e+00    0.000000000e+00    0.000000000e+00
     2358000000    2.118945420e-01    2.164323814e-02    4.526472650e-03    2.558289282e-02    0.000000000e+00    0.000000000e+00    0.000000000e+00    0.000000000e+00
     2360000000    2.133357972e-01    1.308572572e-02   -1.934524043e-04    2.101475000e-02    0.000000000e+00    0.000000000e+00    0.000000000e+00    0.000000000e+00
     2362000000    2.134804279e-01    8.437111974e-03    9.671096923e-04    1.373121049e-02    0.000000000e+00    0.000000000e+00    0.000000000e+00    0.000000000e+00
     2364000000    2.142350674e-01   -5.022907280e-04    7.457126863e-03    1.800664328e-02    0.000000000e+00    0.000000000e+00    0.000000000e+00    0.000000000e+00
     2366000000    2.173919529e-01    5.153659731e-04    1.003277302e-02    2.406125143e-02    0.000000000e+00    0.000000000e+00    0.000000000e+00    0.000000000e+00
     2368000000    2.172908336e-01   -7.580583449e-03    3.522668965e-03    2.692934684e-02    0.000000000e+00    0.000000000e+00    0.000000000e+00    0.000000000e+00
     2370000000    2.133399993e-01   -1.564181410e-02   -7.489258423e-04    1.353577711e-02    0.000000000e+00    0.000000000e+00    0.000000000e+00    0.000000000e+00
     2372000000    2.136038393e-01   -2.195107751e-02   -4.057746381e-03    2.648935840e-02    0.000000000e+00    0.000000000e+00    0.000000000e+00    0.000000000e+00
     2374000000    2.147821933e-01   -2.387488633e-02    1.510882750e-02    2.410045080e-02    0.000000000e+00    0.000000000e+00    0.000000000e+00    0.000000000e+00
     2376000000    2.143537253e-01   -3.426528350e-02   -2.369829686e-03    2.868195437e-02    0.000000000e+00    0.000000000e+00    0.000000000e+00    0.000000000e+00
     2378000000    2.202404439e-01   -4.036502913e-02    6.077316124e-03    2.383135259e-02    0.000000000e+00    0.000000000e+00    0.000000000e+00    0.000000000e+00
     2380000000    2.159100771e-01   -5.640312284e-02    5.992553197e-03    7.986719720e-03    0.000000000e+00    0.000000000e+00    0.000000000e+00    0.000000000e+00
     2382000000    2.090875059e-01   -6.406455487e-02    4.929916002e-03    3.033782914e-02    0.000000000e+00    0.000000000e+00    0.000000000e+00    0.000000000e+00
     2384000000    2.044461668e-01   -7.103326917e-02    4.121322185e-03    2.397387289e-02    0.000000000e+00    0.000000000e+00    0.000000000e+00    0.000000000e+00
     2386000000    2.007395029e-01   -7.577502728e-02   -2.058958635e-03    1.957674325e-02    0.000000000e+00    0.000000000e+00    0.000000000e+00    0.000000000e+00
     2388000000    1.907354444e-01   -9.286923707e-02   -2.641143510e-03    2.423765138e-02    0.000000000e+00    0.000000000e+00    0.000000000e+00    0.000000000e+00
     2390000000    1.860717684e-01   -9.963433444e-02    1.288026758e-02    1.974740997e-02    0.000000000e+00    0.000000000e+00    0.000000000e+00    0.000000000e+00
     2392000000    1.826676130e-01   -1.007431224e-01    9.281532402e-05    2.947206609e-02    0.000000000e+00    0.000000000e+00    0.000000000e+00    0.000000000e+00
     2394000000    1.729716510e-01   -1.020624489e-01    6.719649304e-03    2.712851577e-02    0.000000000e+00    0.000000000e+00    0.000000000e+00    0.000000000e+00
     2396000000    1.678093970e-01   -1.111643910e-01    1.319859177e-02    2.164267935e-02    0.000000000e+00    0.000000000e+00    0.000000000e+00    0.000000000e+00
     2398000000    1.545551866e-01   -1.192008406e-01    1.152426377e-02    2.594798617e-02    0.000000000e+00    0.000000000e+00    0.000000000e+00    0.000000000e+00
     2400000000    1.484839916e-01   -1.264559031e-01    1.587677188e-02    2.549065463e-02    0.000000000e+00    0.000000000e+00    0.000000000e+00    0.000000000e+00
     2402000000    1.439307332e-01   -1.221882030e-01   -4.894857761e-03    2.136078291e-02    0.000000000e+00    0.000000000e+00    0.000000000e+00    0.000000000e+00
     2404000000    1.260672808e-01   -1.332717538e-01    1.231956389e-02    2.624500357e-02    0.000000000e+00    0.000000000e+00    0.000000000e+00    0.000000000e+00
     2406000000    1.184908301e-01   -1.326065660e-01    9.981080890e-03    2.177194506e-02    0.000000000e+00    0.000000000e+00    0.000000000e+00    0.000000000e+00
     2408000000    1.121388003e-01   -1.268366426e-01    1.847096719e-02    2.164202183e-02    0.000000000e+00    0.000000000e+00    0.000000000e+00    0.000000000e+00
     2410000000    9.952600300e-02   -1.366740763e-01    1.384409890e-02    2.666751295e-02    0.000000000e+00    0.000000000e+00    0.000000000e+00    0.000000000e+00
     2412000000    9.238550812e-02   -1.350277513e-01    1.466564089e-02    2.391716093e-02    0.000000000e+00    0.000000000e+00    0.000000000e+00    0.000000000e+00
     2414000000    8.311649412e-02   -1.352925003e-01    1.368778571e-02    2.655313350e-02    0.000000000e+00    0.000000000e+00    0.000000000e+00    0.000000000e+00
     2416000000    7.821813971e-02   -1.307682395e-01    2.286465466e-02    2.338786609e-02    0.000000000e+00    0.000000000e+00    0.000000000e+00    0.000000000e+00
     2418000000    6.711343676e-02   -1.318273842e-01    1.679744013e-02    1.148359757e-02    0.000000000e+00    0.000000000e+00    0.000000000e+00    0.000000000e+00
     2420000000    5.732867122e-02   -1.363131702e-01    2.199625224e-02    1.840241626e-02    0.000000000e+00    0.000000000e+00    0.000000000e+00    0.000000000e+00
     2422000000    5.023585260e-02   -1.280286610e-01    1.737846248e-02    1.428766921e-02    0.000000000e+00    0.000000000e+00    0.000000000e+00    0.000000000e+00
     2424000000    4.031992704e-02   -1.295755208e-01    1.341100689e-02    1.880716532e-02    0.000000000e+00    0.000000000e+00    0.000000000e+00    0.000000000e+00
     2426000000    3.016554005e-02   -1.275200844e-01    2.664118446e-02    1.590026729e-02    0.000000000e+00    0.000000000e+00    0.000000000e+00    0.000000000e+00
     2428000000    1.969006099e-02   -1.282068193e-01    1.553078368e-02    1.618370414e-02    0.000000000e+00    0.000000000e+00    0.000000000e+00    0.000000000e+00
     2430000000    1.495563611e-02   -1.141854748e-01    1.927748695e-02    1.179519296e-02    0.000000000e+00    0.000000000e+00    0.000000000e+00    0.000000000e+00
