! NanoVNA-App
! Date: 2021-06-09 16:33:55
! Start: 4GHz Stop: 5.9GHz Points: 801
! S-Parameter data: F S11 S21 S12 S22
# Hz S RI R 50
!     Frequency           S11_Real           S11_Imag           S21_Real           S21_Imag           S12_Real           S12_Imag           S22_Real           S22_Imag
     4000000000    1.517064720e-01    2.208461165e-01    2.448294079e-03    1.527410839e-02    0.000000000e+00    0.000000000e+00    0.000000000e+00    0.000000000e+00
     4002375000    1.512303054e-01    2.185519934e-01   -2.570589422e-04    1.750138775e-02    0.000000000e+00    0.000000000e+00    0.000000000e+00    0.000000000e+00
     4004750000    1.524926722e-01    2.155478597e-01   -6.099536549e-04    1.724579930e-02    0.000000000e+00    0.000000000e+00    0.000000000e+00    0.000000000e+00
     4007125000    1.545652002e-01    2.148859948e-01   -1.210968010e-03    1.810253039e-02    0.000000000e+00    0.000000000e+00    0.000000000e+00    0.000000000e+00
     4009500000    1.579929739e-01    2.114807963e-01   -3.267921973e-03    1.787933894e-02    0.000000000e+00    0.000000000e+00    0.000000000e+00    0.000000000e+00
     4011875000    1.579854190e-01    2.062392533e-01   -3.038875293e-03    1.957312040e-02    0.000000000e+00    0.000000000e+00    0.000000000e+00    0.000000000e+00
     4014250000    1.617330164e-01    2.036119848e-01   -4.512603395e-03    2.039005607e-02    0.000000000e+00    0.000000000e+00    0.000000000e+00    0.000000000e+00
     4016625000    1.636863500e-01    2.029213011e-01   -4.986167885e-03    1.961069740e-02    0.000000000e+00    0.000000000e+00    0.000000000e+00    0.000000000e+00
     4019000000    1.652424186e-01    2.031066418e-01   -6.725701503e-03    2.032826468e-02    0.000000000e+00    0.000000000e+00    0.000000000e+00    0.000000000e+00
     4021375000    1.633961350e-01    1.992682666e-01   -6.938868668e-03    2.143339068e-02    0.000000000e+00    0.000000000e+00    0.000000000e+00    0.000000000e+00
     4023750000    1.665620357e-01    2.002779841e-01   -8.258472197e-03    2.196392231e-02    0.000000000e+00    0.000000000e+00    0.000000000e+00    0.000000000e+00
     4026125000    1.701250970e-01    1.950187385e-01   -9.002365172e-03    2.230694517e-02    0.000000000e+00    0.000000000e+00    0.000000000e+00    0.000000000e+00
     4028500000    1.707694381e-01    1.966125369e-01   -9.109753184e-03    2.177070267e-02    0.000000000e+00    0.000000000e+00    0.000000000e+00    0.000000000e+00
     4030875000    1.740662307e-01    1.930929720e-01   -9.645177051e-03    2.256292105e-02    0.000000000e+00    0.000000000e+00    0.000000000e+00    0.000000000e+00
     4033250000    1.753194630e-01    1.912460923e-01   -1.085438766e-02    2.296047285e-02    0.000000000e+00    0.000000000e+00    0.000000000e+00    0.000000000e+00
     4035625000    1.749403924e-01    1.896977872e-01   -1.087599900e-02    2.471302450e-02    0.000000000e+00    0.000000000e+00    0.000000000e+00    0.000000000e+00
     4038000000    1.803561747e-01    1.859224886e-01   -1.105776336e-02    2.572594211e-02    0.000000000e+00    0.000000000e+00    0.000000000e+00    0.000000000e+00
     4040375000    1.811850071e-01    1.861277670e-01   -1.092427038e-02    2.552392520e-02    0.000000000e+00    0.000000000e+00    0.000000000e+00    0.000000000e+00
     4042750000    1.852652133e-01    1.843885183e-01   -1.261596382e-02    2.634144202e-02    0.000000000e+00    0.000000000e+00    0.000000000e+00    0.000000000e+00
     4045125000    1.860297173e-01    1.794831157e-01   -1.187633350e-02    2.583694831e-02    0.000000000e+00    0.000000000e+00    0.000000000e+00    0.000000000e+00
     4047500000    1.900677234e-01    1.820887029e-01   -1.346035022e-02    2.622797526e-02    0.000000000e+00    0.000000000e+00    0.000000000e+00    0.000000000e+00
     4049875000    1.880349666e-01    1.773869246e-01   -1.372665633e-02    2.577322163e-02    0.000000000e+00    0.000000000e+00    0.000000000e+00    0.000000000e+00
     4052250000    1.951729804e-01    1.725703478e-01   -1.430816110e-02    2.636911906e-02    0.000000000e+00    0.000000000e+00    0.000000000e+00    0.000000000e+00
     4054625000    1.966369003e-01    1.695030481e-01   -1.666284539e-02    2.763884142e-02    0.000000000e+00    0.000000000e+00    0.000000000e+00    0.000000000e+00
     4057000000    1.971764416e-01    1.668845117e-01   -1.719748229e-02    2.837734483e-02    0.000000000e+00    0.000000000e+00    0.000000000e+00    0.000000000e+00
     4059375000    1.992990375e-01    1.634425670e-01   -1.765243337e-02    2.788315341e-02    0.000000000e+00    0.000000000e+00    0.000000000e+00    0.000000000e+00
     4061750000    2.037022710e-01    1.602210850e-01   -1.816350035e-02    2.956059575e-02    0.000000000e+00    0.000000000e+00    0.000000000e+00    0.000000000e+00
     4064125000    1.996888816e-01    1.627013236e-01   -1.852015592e-02    2.877539210e-02    0.000000000e+00    0.000000000e+00    0.000000000e+00    0.000000000e+00
     4066500000    2.070994675e-01    1.545441151e-01   -1.752407290e-02    2.826382779e-02    0.000000000e+00    0.000000000e+00    0.000000000e+00    0.000000000e+00
     4068875000    2.067830861e-01    1.556659788e-01   -1.953571662e-02    2.845160477e-02    0.000000000e+00    0.000000000e+00    0.000000000e+00    0.000000000e+00
     4071250000    2.080190331e-01    1.527067125e-01   -1.953103766e-02    2.811572142e-02    0.000000000e+00    0.000000000e+00    0.000000000e+00    0.000000000e+00
     4073625000    2.091497034e-01    1.517311484e-01   -2.075370774e-02    2.778806351e-02    0.000000000e+00    0.000000000e+00    0.000000000e+00    0.000000000e+00
     4076000000    2.084693760e-01    1.513030231e-01   -2.185291424e-02    3.145455196e-02    0.000000000e+00    0.000000000e+00    0.000000000e+00    0.000000000e+00
     4078375000    2.106446922e-01    1.441696584e-01   -2.358814143e-02    2.765037678e-02    0.000000000e+00    0.000000000e+00    0.000000000e+00    0.000000000e+00
     4080750000    2.125443816e-01    1.388901770e-01   -2.236486971e-02    2.685756795e-02    0.000000000e+00    0.000000000e+00    0.000000000e+00    0.000000000e+00
     4083125000    2.135301679e-01    1.421403736e-01   -2.435205691e-02    2.739019319e-02    0.000000000e+00    0.000000000e+00    0.000000000e+00    0.000000000e+00
     4085500000    2.185291201e-01    1.343065351e-01   -2.656163834e-02    2.768745087e-02    0.000000000e+00    0.000000000e+00    0.000000000e+00    0.000000000e+00
     4087875000    2.204872370e-01    1.322740763e-01   -2.779055014e-02    2.880162373e-02    0.000000000e+00    0.000000000e+00    0.000000000e+00    0.000000000e+00
     4090250000    2.186167240e-01    1.292504668e-01   -2.810932510e-02    2.767016180e-02    0.000000000e+00    0.000000000e+00    0.000000000e+00    0.000000000e+00
     4092625000    2.213943005e-01    1.243168637e-01   -2.805974521e-02    2.882012539e-02    0.000000000e+00    0.000000000e+00    0.000000000e+00    0.000000000e+00
     4095000000    2.172279954e-01    1.283580214e-01   -3.023835085e-02    3.033817746e-02    0.000000000e+00    0.000000000e+00    0.000000000e+00    0.000000000e+00
     4097375000    2.242562771e-01    1.209293455e-01   -3.065191768e-02    2.870031446e-02    0.000000000e+00    0.000000000e+00    0.000000000e+00    0.000000000e+00
     4099750000    2.246602178e-01    1.181828380e-01   -2.995387651e-02    3.014966473e-02    0.000000000e+00    0.000000000e+00    0.000000000e+00    0.000000000e+00
     4102125000    2.215090096e-01    1.218313277e-01   -3.275648877e-02    3.141562268e-02    0.000000000e+00    0.000000000e+00    0.000000000e+00    0.000000000e+00
     4104500000    2.229069322e-01    1.147527844e-01   -3.413131088e-02    3.202511743e-02    0.000000000e+00    0.000000000e+00    0.000000000e+00    0.000000000e+00
     4106875000    2.241911888e-01    1.102453247e-01   -3.547828272e-02    3.224468604e-02    0.000000000e+00    0.000000000e+00    0.000000000e+00    0.000000000e+00
     4109250000    2.254862487e-01    1.104244217e-01   -3.372601792e-02    3.417514637e-02    0.000000000e+00    0.000000000e+00    0.000000000e+00    0.000000000e+00
     4111625000    2.257501930e-01    1.078532487e-01   -3.675233573e-02    3.429723904e-02    0.000000000e+00    0.000000000e+00    0.000000000e+00    0.000000000e+00
     4114000000    2.276510447e-01    1.049847230e-01   -3.699448705e-02    3.501538932e-02    0.000000000e+00    0.000000000e+00    0.000000000e+00    0.000000000e+00
     4116375000    2.312634289e-01    1.010851189e-01   -3.770651296e-02    3.622165322e-02    0.000000000e+00    0.000000000e+00    0.000000000e+00    0.000000000e+00
     4118750000    2.302582562e-01    1.022842526e-01   -3.659558669e-02    3.699468076e-02    0.000000000e+00    0.000000000e+00    0.000000000e+00    0.000000000e+00
     4121125000    2.305667698e-01    9.996338934e-02   -3.618534282e-02    3.665006906e-02    0.000000000e+00    0.000000000e+00    0.000000000e+00    0.000000000e+00
     4123500000    2.339365482e-01    9.765275568e-02   -3.722735122e-02    3.803333640e-02    0.000000000e+00    0.000000000e+00    0.000000000e+00    0.000000000e+00
     4125875000    2.349826992e-01    9.395720810e-02   -3.784740344e-02    3.751713410e-02    0.000000000e+00    0.000000000e+00    0.000000000e+00    0.000000000e+00
     4128250000    2.313798070e-01    9.210556000e-02   -3.876418620e-02    3.857364878e-02    0.000000000e+00    0.000000000e+00    0.000000000e+00    0.000000000e+00
     4130625000    2.361325473e-01    8.514215052e-02   -3.730834648e-02    3.849079460e-02    0.000000000e+00    0.000000000e+00    0.000000000e+00    0.000000000e+00
     4133000000    2.372119427e-01    8.154988289e-02   -3.777446970e-02    3.959429637e-02    0.000000000e+00    0.000000000e+00    0.000000000e+00    0.000000000e+00
     4135375000    2.389292866e-01    8.413883299e-02   -3.963686526e-02    3.928522021e-02    0.000000000e+00    0.000000000e+00    0.000000000e+00    0.000000000e+00
     4137750000    2.390522510e-01    7.961263508e-02   -3.625886515e-02    3.873685747e-02    0.000000000e+00    0.000000000e+00    0.000000000e+00    0.000000000e+00
     4140125000    2.441928238e-01    7.602387667e-02   -3.819552064e-02    4.093472660e-02    0.000000000e+00    0.000000000e+00    0.000000000e+00    0.000000000e+00
     4142500000    2.417845279e-01    7.270737737e-02   -3.822871298e-02    3.993028775e-02    0.000000000e+00    0.000000000e+00    0.000000000e+00    0.000000000e+00
     4144875000    2.423920035e-01    7.103408873e-02   -3.834310919e-02    3.820499033e-02    0.000000000e+00    0.000000000e+00    0.000000000e+00    0.000000000e+00
     4147250000    2.431178838e-01    6.715306640e-02   -4.008662701e-02    4.021384194e-02    0.000000000e+00    0.000000000e+00    0.000000000e+00    0.000000000e+00
     4149625000    2.460414469e-01    6.749629229e-02   -4.262128472e-02    3.995578736e-02    0.000000000e+00    0.000000000e+00    0.000000000e+00    0.000000000e+00
     4152000000    2.450613678e-01    6.110195816e-02   -3.903951496e-02    4.135448486e-02    0.000000000e+00    0.000000000e+00    0.000000000e+00    0.000000000e+00
     4154375000    2.433863878e-01    5.765086412e-02   -4.194965959e-02    4.069425538e-02    0.000000000e+00    0.000000000e+00    0.000000000e+00    0.000000000e+00
     4156750000    2.430188507e-01    5.414771661e-02   -3.986855596e-02    4.142021760e-02    0.000000000e+00    0.000000000e+00    0.000000000e+00    0.000000000e+00
     4159125000    2.485266775e-01    5.342255533e-02   -4.359422624e-02    4.232925177e-02    0.000000000e+00    0.000000000e+00    0.000000000e+00    0.000000000e+00
     4161500000    2.453304827e-01    4.874997959e-02   -4.485937953e-02    3.992141411e-02    0.000000000e+00    0.000000000e+00    0.000000000e+00    0.000000000e+00
     4163875000    2.441606522e-01    4.275866970e-02   -4.509041831e-02    3.861041367e-02    0.000000000e+00    0.000000000e+00    0.000000000e+00    0.000000000e+00
     4166250000    2.467385679e-01    3.704262897e-02   -4.398199543e-02    3.899900243e-02    0.000000000e+00    0.000000000e+00    0.000000000e+00    0.000000000e+00
     4168625000    2.473224849e-01    3.669517115e-02   -4.646942392e-02    3.849981353e-02    0.000000000e+00    0.000000000e+00    0.000000000e+00    0.000000000e+00
     4171000000    2.451761812e-01    3.362760320e-02   -4.782031104e-02    3.887585178e-02    0.000000000e+00    0.000000000e+00    0.000000000e+00    0.000000000e+00
     4173375000    2.418836802e-01    3.555529937e-02   -4.893172905e-02    3.930805251e-02    0.000000000e+00    0.000000000e+00    0.000000000e+00    0.000000000e+00
     4175750000    2.436946332e-01    3.065311164e-02   -5.021258816e-02    3.867570311e-02    0.000000000e+00    0.000000000e+00    0.000000000e+00    0.000000000e+00
     4178125000    2.427801639e-01    2.697880566e-02   -4.995301366e-02    3.925327957e-02    0.000000000e+00    0.000000000e+00    0.000000000e+00    0.000000000e+00
     4180500000    2.471899390e-01    2.528529242e-02   -5.324009061e-02    3.867312893e-02    0.000000000e+00    0.000000000e+00    0.000000000e+00    0.000000000e+00
     4182875000    2.468801588e-01    2.314275503e-02   -5.374767631e-02    3.924532980e-02    0.000000000e+00    0.000000000e+00    0.000000000e+00    0.000000000e+00
     4185250000    2.432496548e-01    2.331186458e-02   -5.621838197e-02    3.657214344e-02    0.000000000e+00    0.000000000e+00    0.000000000e+00    0.000000000e+00
     4187625000    2.451460958e-01    2.244674042e-02   -5.873807892e-02    3.749654070e-02    0.000000000e+00    0.000000000e+00    0.000000000e+00    0.000000000e+00
     4190000000    2.491385639e-01    2.084965631e-02   -5.881983042e-02    3.707870841e-02    0.000000000e+00    0.000000000e+00    0.000000000e+00    0.000000000e+00
     4192375000    2.452817708e-01    1.349193417e-02   -5.862286314e-02    3.688682988e-02    0.000000000e+00    0.000000000e+00    0.000000000e+00    0.000000000e+00
     4194750000    2.493640780e-01    8.751559071e-03   -6.070016697e-02    3.664418682e-02    0.000000000e+00    0.000000000e+00    0.000000000e+00    0.000000000e+00
     4197125000    2.457385808e-01    6.458596792e-03   -6.151539460e-02    3.586826846e-02    0.000000000e+00    0.000000000e+00    0.000000000e+00    0.000000000e+00
     4199500000    2.367937565e-01    2.593631856e-02   -7.043856382e-02    3.804381937e-02    0.000000000e+00    0.000000000e+00    0.000000000e+00    0.000000000e+00
     4201875000    2.466648668e-01    4.318551160e-03   -6.485264748e-02    3.305688873e-02    0.000000000e+00    0.000000000e+00    0.000000000e+00    0.000000000e+00
     4204250000    2.504423261e-01   -4.672450013e-04   -6.719563901e-02    3.409044072e-02    0.000000000e+00    0.000000000e+00    0.000000000e+00    0.000000000e+00
     4206625000    2.468639612e-01   -4.043125082e-03   -6.797306240e-02    3.289126232e-02    0.000000000e+00    0.000000000e+00    0.000000000e+00    0.000000000e+00
     4209000000    2.482953966e-01   -3.525276668e-03   -6.902986765e-02    3.150162473e-02    0.000000000e+00    0.000000000e+00    0.000000000e+00    0.000000000e+00
     4211375000    2.466845810e-01   -9.170684032e-03   -6.971351057e-02    3.002053872e-02    0.000000000e+00    0.000000000e+00    0.000000000e+00    0.000000000e+00
     4213750000    2.504401505e-01   -1.368467044e-02   -7.171634585e-02    2.948324755e-02    0.000000000e+00    0.000000000e+00    0.000000000e+00    0.000000000e+00
     4216125000    2.469924986e-01   -1.581672207e-02   -7.024507970e-02    2.727747336e-02    0.000000000e+00    0.000000000e+00    0.000000000e+00    0.000000000e+00
     4218500000    2.517615259e-01   -2.146708220e-02   -7.278732955e-02    2.451066300e-02    0.000000000e+00    0.000000000e+00    0.000000000e+00    0.000000000e+00
     4220875000    2.506102622e-01   -2.421040833e-02   -7.283268869e-02    2.619946562e-02    0.000000000e+00    0.000000000e+00    0.000000000e+00    0.000000000e+00
     4223250000    2.512284219e-01   -2.703296207e-02   -7.212028652e-02    2.478961460e-02    0.000000000e+00    0.000000000e+00    0.000000000e+00    0.000000000e+00
     4225625000    2.518455684e-01   -2.766180597e-02   -7.472209632e-02    2.065456286e-02    0.000000000e+00    0.000000000e+00    0.000000000e+00    0.000000000e+00
     4228000000    2.473353744e-01   -3.331519291e-02   -7.310569286e-02    1.831433177e-02    0.000000000e+00    0.000000000e+00    0.000000000e+00    0.000000000e+00
     4230375000    2.470600009e-01   -3.777719289e-02   -7.315672934e-02    1.530194655e-02    0.000000000e+00    0.000000000e+00    0.000000000e+00    0.000000000e+00
     4232750000    2.471791506e-01   -4.067566246e-02   -7.400865853e-02    1.349478774e-02    0.000000000e+00    0.000000000e+00    0.000000000e+00    0.000000000e+00
     4235125000    2.491991222e-01   -4.516020417e-02   -7.368605584e-02    1.231853571e-02    0.000000000e+00    0.000000000e+00    0.000000000e+00    0.000000000e+00
     4237500000    2.595704496e-01   -4.371739179e-02   -7.513255626e-02    1.014886983e-02    0.000000000e+00    0.000000000e+00    0.000000000e+00    0.000000000e+00
     4239875000    2.484909892e-01   -5.134449527e-02   -7.293411344e-02    7.349568419e-03    0.000000000e+00    0.000000000e+00    0.000000000e+00    0.000000000e+00
     4242250000    2.455299646e-01   -5.676935986e-02   -7.125059515e-02    3.484776476e-03    0.000000000e+00    0.000000000e+00    0.000000000e+00    0.000000000e+00
     4244625000    2.412257493e-01   -5.992576852e-02   -7.032067329e-02    1.380174886e-03    0.000000000e+00    0.000000000e+00    0.000000000e+00    0.000000000e+00
     4247000000    2.435018420e-01   -6.174248829e-02   -7.066988945e-02   -5.712638958e-04    0.000000000e+00    0.000000000e+00    0.000000000e+00    0.000000000e+00
     4249375000    2.411070764e-01   -6.666164100e-02   -6.833291799e-02   -2.398415701e-03    0.000000000e+00    0.000000000e+00    0.000000000e+00    0.000000000e+00
     4251750000    2.377445400e-01   -6.599570066e-02   -6.751676649e-02   -6.441697478e-03    0.000000000e+00    0.000000000e+00    0.000000000e+00    0.000000000e+00
     4254125000    2.334287167e-01   -7.073412836e-02   -6.489480287e-02   -6.161081139e-03    0.000000000e+00    0.000000000e+00    0.000000000e+00    0.000000000e+00
     4256500000    2.346986681e-01   -7.033245265e-02   -6.414235383e-02   -9.157872759e-03    0.000000000e+00    0.000000000e+00    0.000000000e+00    0.000000000e+00
     4258875000    2.317020297e-01   -7.305913419e-02   -6.381014735e-02   -1.171836443e-02    0.000000000e+00    0.000000000e+00    0.000000000e+00    0.000000000e+00
     4261250000    2.328671664e-01   -7.501051575e-02   -6.304393709e-02   -1.367329806e-02    0.000000000e+00    0.000000000e+00    0.000000000e+00    0.000000000e+00
     4263625000    2.309686691e-01   -7.684358954e-02   -6.008857861e-02   -1.491780858e-02    0.000000000e+00    0.000000000e+00    0.000000000e+00    0.000000000e+00
     4266000000    2.306088507e-01   -8.162897080e-02   -5.952949077e-02   -1.523690578e-02    0.000000000e+00    0.000000000e+00    0.000000000e+00    0.000000000e+00
     4268375000    2.316335142e-01   -8.312929422e-02   -5.859995261e-02   -1.630266756e-02    0.000000000e+00    0.000000000e+00    0.000000000e+00    0.000000000e+00
     4270750000    2.273821384e-01   -8.303826302e-02   -5.827489123e-02   -2.128106169e-02    0.000000000e+00    0.000000000e+00    0.000000000e+00    0.000000000e+00
     4273125000    2.282606363e-01   -8.464258909e-02   -5.633816123e-02   -2.100494318e-02    0.000000000e+00    0.000000000e+00    0.000000000e+00    0.000000000e+00
