! NanoVNA-App
! Date: 2021-06-09 16:33:55
! Start: 50kHz Stop: 3.0001GHz Points: 1024
! S-Parameter data: F S11 S21 S12 S22
# Hz S RI R 50
!     Frequency           S11_Real           S11_Imag           S21_Real           S21_Imag           S12_Real           S12_Imag           S22_Real           S22_Imag
          50000    4.034548104e-01   -1.168821827e-01   -1.132978439e+00   -1.369611502e+00    0.000000000e+00    0.000000000e+00    0.000000000e+00    0.000000000e+00
        2982551    2.351446897e-01   -2.480759770e-01   -7.235514164e+00   -6.964258194e+00    0.000000000e+00    0.000000000e+00    0.000000000e+00    0.000000000e+00
        5915103    4.008273035e-02   -2.188137621e-01   -1.112763691e+01   -6.022891998e+00    0.000000000e+00    0.000000000e+00    0.000000000e+00    0.000000000e+00
        8847654   -2.691082656e-02   -1.646022797e-01   -1.263024235e+01   -5.011355400e+00    0.000000000e+00    0.000000000e+00    0.000000000e+00    0.000000000e+00
       11780205   -4.141549766e-02   -1.317973435e-01   -1.364112759e+01   -3.972618818e+00    0.000000000e+00    0.000000000e+00    0.000000000e+00    0.000000000e+00
       14712757   -5.422839895e-02   -1.122573763e-01   -1.416897202e+01   -3.056379795e+00    0.000000000e+00    0.000000000e+00    0.000000000e+00    0.000000000e+00
       17645308   -6.117783859e-02   -9.894005954e-02   -1.442434120e+01   -2.309044600e+00    0.000000000e+00    0.000000000e+00    0.000000000e+00    0.000000000e+00
       20577859   -6.588038802e-02   -8.683343977e-02   -1.454336548e+01   -1.667746425e+00    0.000000000e+00    0.000000000e+00    0.000000000e+00    0.000000000e+00
       23510411   -6.970562041e-02   -7.702341676e-02   -1.467399502e+01   -1.128833413e+00    0.000000000e+00    0.000000000e+00    0.000000000e+00    0.000000000e+00
       26442962   -6.845465302e-02   -7.078673691e-02   -1.468849277e+01   -6.358170509e-01    0.000000000e+00    0.000000000e+00    0.000000000e+00    0.000000000e+00
       29375513   -7.352564484e-02   -6.421246380e-02   -1.474133301e+01   -1.829985529e-01    0.000000000e+00    0.000000000e+00    0.000000000e+00    0.000000000e+00
       32308065   -7.312028110e-02   -5.278996006e-02   -1.473539639e+01    2.111040950e-01    0.000000000e+00    0.000000000e+00    0.000000000e+00    0.000000000e+00
       35240616   -7.326488197e-02   -4.690976813e-02   -1.472699070e+01    5.936154127e-01    0.000000000e+00    0.000000000e+00    0.000000000e+00    0.000000000e+00
       38173167   -7.416834682e-02   -4.398179799e-02   -1.468620300e+01    9.321448207e-01    0.000000000e+00    0.000000000e+00    0.000000000e+00    0.000000000e+00
       41105718   -7.238548994e-02   -4.005164281e-02   -1.464785671e+01    1.281596303e+00    0.000000000e+00    0.000000000e+00    0.000000000e+00    0.000000000e+00
       44038270   -7.428816706e-02   -3.715767339e-02   -1.465699005e+01    1.626783013e+00    0.000000000e+00    0.000000000e+00    0.000000000e+00    0.000000000e+00
       46970821   -7.357867807e-02   -3.379075602e-02   -1.458585739e+01    1.933424711e+00    0.000000000e+00    0.000000000e+00    0.000000000e+00    0.000000000e+00
       49903372   -7.349784672e-02   -3.035894595e-02   -1.452766800e+01    2.229404449e+00    0.000000000e+00    0.000000000e+00    0.000000000e+00    0.000000000e+00
       52835924   -7.301872224e-02   -2.931123227e-02   -1.447038269e+01    2.534589529e+00    0.000000000e+00    0.000000000e+00    0.000000000e+00    0.000000000e+00
       55768475   -7.300788164e-02   -2.618761733e-02   -1.438836288e+01    2.814213514e+00    0.000000000e+00    0.000000000e+00    0.000000000e+00    0.000000000e+00
       58701026   -7.354144007e-02   -2.442418225e-02   -1.431797123e+01    3.116929531e+00    0.000000000e+00    0.000000000e+00    0.000000000e+00    0.000000000e+00
       61633578   -7.351303846e-02   -2.398291044e-02   -1.424647999e+01    3.358649492e+00    0.000000000e+00    0.000000000e+00    0.000000000e+00    0.000000000e+00
       64566129   -7.257325947e-02   -2.272367664e-02   -1.418996334e+01    3.668522596e+00    0.000000000e+00    0.000000000e+00    0.000000000e+00    0.000000000e+00
       67498680   -7.375244796e-02   -2.078876272e-02   -1.409891319e+01    3.918267012e+00    0.000000000e+00    0.000000000e+00    0.000000000e+00    0.000000000e+00
       70431232   -7.306121290e-02   -1.985245943e-02   -1.399486065e+01    4.188600063e+00    0.000000000e+00    0.000000000e+00    0.000000000e+00    0.000000000e+00
       73363783   -7.331486791e-02   -1.869905926e-02   -1.389490414e+01    4.440115452e+00    0.000000000e+00    0.000000000e+00    0.000000000e+00    0.000000000e+00
       76296334   -7.279785722e-02   -1.756089553e-02   -1.378932285e+01    4.686996460e+00    0.000000000e+00    0.000000000e+00    0.000000000e+00    0.000000000e+00
       79228886   -7.270601392e-02   -1.697645336e-02   -1.370208836e+01    4.933731079e+00    0.000000000e+00    0.000000000e+00    0.000000000e+00    0.000000000e+00
       82161437   -7.411452383e-02   -1.553628780e-02   -1.359180737e+01    5.210169792e+00    0.000000000e+00    0.000000000e+00    0.000000000e+00    0.000000000e+00
       85093988   -7.386025041e-02   -1.402851380e-02   -1.349529743e+01    5.447073460e+00    0.000000000e+00    0.000000000e+00    0.000000000e+00    0.000000000e+00
       88026540   -7.335332036e-02   -1.303460076e-02   -1.336135769e+01    5.659770012e+00    0.000000000e+00    0.000000000e+00    0.000000000e+00    0.000000000e+00
       90959091   -7.323562354e-02   -1.309153438e-02   -1.326485157e+01    5.915076256e+00    0.000000000e+00    0.000000000e+00    0.000000000e+00    0.000000000e+00
       93891642   -7.217331976e-02   -1.282194816e-02   -1.313575554e+01    6.147960663e+00    0.000000000e+00    0.000000000e+00    0.000000000e+00    0.000000000e+00
       96824194   -7.268363237e-02   -1.136281155e-02   -1.300844479e+01    6.353124142e+00    0.000000000e+00    0.000000000e+00    0.000000000e+00    0.000000000e+00
       99756745   -7.193295658e-02   -1.122390013e-02   -1.287214947e+01    6.566168308e+00    0.000000000e+00    0.000000000e+00    0.000000000e+00    0.000000000e+00
      102689296   -7.174703479e-02   -1.023988333e-02   -1.288673496e+01    6.828790188e+00    0.000000000e+00    0.000000000e+00    0.000000000e+00    0.000000000e+00
      105621848   -7.217853516e-02   -8.973347954e-03   -1.261157227e+01    7.011994362e+00    0.000000000e+00    0.000000000e+00    0.000000000e+00    0.000000000e+00
      108554399   -7.233810425e-02   -9.360529482e-03   -1.247234344e+01    7.226980686e+00    0.000000000e+00    0.000000000e+00    0.000000000e+00    0.000000000e+00
      111486950   -7.233713567e-02   -8.016357198e-03   -1.230739880e+01    7.454078674e+00    0.000000000e+00    0.000000000e+00    0.000000000e+00    0.000000000e+00
      114419501   -7.185532153e-02   -7.886875421e-03   -1.214670086e+01    7.656697750e+00    0.000000000e+00    0.000000000e+00    0.000000000e+00    0.000000000e+00
      117352053   -7.139375806e-02   -6.963840686e-03   -1.201888943e+01    7.853774548e+00    0.000000000e+00    0.000000000e+00    0.000000000e+00    0.000000000e+00
      120284604   -7.151488960e-02   -7.116269320e-03   -1.184436798e+01    8.042927742e+00    0.000000000e+00    0.000000000e+00    0.000000000e+00    0.000000000e+00
      123217155   -7.079792768e-02   -6.944474299e-03   -1.167381096e+01    8.247982979e+00    0.000000000e+00    0.000000000e+00    0.000000000e+00    0.000000000e+00
      126149707   -7.129534334e-02   -5.651833955e-03   -1.154506683e+01    8.398475647e+00    0.000000000e+00    0.000000000e+00    0.000000000e+00    0.000000000e+00
      129082258   -7.081259042e-02   -4.764443263e-03   -1.132631779e+01    8.597045898e+00    0.000000000e+00    0.000000000e+00    0.000000000e+00    0.000000000e+00
      132014809   -6.934414059e-02   -3.732508281e-03   -1.117957020e+01    8.824373245e+00    0.000000000e+00    0.000000000e+00    0.000000000e+00    0.000000000e+00
      134947361   -6.910392642e-02   -4.303090740e-03   -1.104277897e+01    8.964919090e+00    0.000000000e+00    0.000000000e+00    0.000000000e+00    0.000000000e+00
      137879912   -6.860245019e-02   -3.920980264e-03   -1.086553764e+01    9.121963501e+00    0.000000000e+00    0.000000000e+00    0.000000000e+00    0.000000000e+00
      140812463   -6.821773946e-02   -5.954274908e-03   -1.081539154e+01    9.278874397e+00    0.000000000e+00    0.000000000e+00    0.000000000e+00    0.000000000e+00
      143745015   -6.736931950e-02   -5.951725412e-03   -1.062566280e+01    9.402087212e+00    0.000000000e+00    0.000000000e+00    0.000000000e+00    0.000000000e+00
      146677566   -6.506532431e-02   -6.586842239e-03   -1.040228367e+01    9.557963371e+00    0.000000000e+00    0.000000000e+00    0.000000000e+00    0.000000000e+00
      149610117   -6.482686102e-02   -5.707720295e-03   -1.019646835e+01    9.725035667e+00    0.000000000e+00    0.000000000e+00    0.000000000e+00    0.000000000e+00
      152542669   -6.440044194e-02   -5.586894229e-03   -9.984766006e+00    9.816232681e+00    0.000000000e+00    0.000000000e+00    0.000000000e+00    0.000000000e+00
      155475220   -6.422144175e-02   -5.195178092e-03   -9.800579071e+00    9.963786125e+00    0.000000000e+00    0.000000000e+00    0.000000000e+00    0.000000000e+00
      158407771   -6.405737996e-02   -4.706205800e-03   -9.614054680e+00    1.012011242e+01    0.000000000e+00    0.000000000e+00    0.000000000e+00    0.000000000e+00
      161340323   -6.359507889e-02   -4.339581821e-03   -9.403340340e+00    1.025634480e+01    0.000000000e+00    0.000000000e+00    0.000000000e+00    0.000000000e+00
      164272874   -6.313464791e-02   -4.760870710e-03   -9.189507484e+00    1.038408279e+01    0.000000000e+00    0.000000000e+00    0.000000000e+00    0.000000000e+00
      167205425   -6.223946810e-02   -4.766119644e-03   -9.005332947e+00    1.051499367e+01    0.000000000e+00    0.000000000e+00    0.000000000e+00    0.000000000e+00
      170137977   -6.161522493e-02   -5.597227719e-03   -8.811740875e+00    1.060474777e+01    0.000000000e+00    0.000000000e+00    0.000000000e+00    0.000000000e+00
      173070528   -6.118094921e-02   -4.561048932e-03   -8.615732193e+00    1.073646450e+01    0.000000000e+00    0.000000000e+00    0.000000000e+00    0.000000000e+00
      176003079   -6.051266938e-02   -5.276300013e-03   -8.410597801e+00    1.086373425e+01    0.000000000e+00    0.000000000e+00    0.000000000e+00    0.000000000e+00
      178935630   -6.004335359e-02   -5.739076529e-03   -8.250736237e+00    1.102310753e+01    0.000000000e+00    0.000000000e+00    0.000000000e+00    0.000000000e+00
      181868182   -5.855675787e-02   -5.674653221e-03   -8.035869598e+00    1.108211994e+01    0.000000000e+00    0.000000000e+00    0.000000000e+00    0.000000000e+00
      184800733   -5.810758099e-02   -6.175172981e-03   -7.808051586e+00    1.116238499e+01    0.000000000e+00    0.000000000e+00    0.000000000e+00    0.000000000e+00
      187733284   -5.686787143e-02   -7.037120406e-03   -7.584540844e+00    1.123553467e+01    0.000000000e+00    0.000000000e+00    0.000000000e+00    0.000000000e+00
      190665836   -5.625120923e-02   -6.969623733e-03   -7.363114834e+00    1.130656624e+01    0.000000000e+00    0.000000000e+00    0.000000000e+00    0.000000000e+00
      193598387   -5.520638451e-02   -8.211968467e-03   -7.155427456e+00    1.137317371e+01    0.000000000e+00    0.000000000e+00    0.000000000e+00    0.000000000e+00
      196530938   -5.498718098e-02   -8.306598291e-03   -6.950754642e+00    1.144463730e+01    0.000000000e+00    0.000000000e+00    0.000000000e+00    0.000000000e+00
      199463490   -5.430421978e-02   -9.074949659e-03   -6.744266033e+00    1.151800728e+01    0.000000000e+00    0.000000000e+00    0.000000000e+00    0.000000000e+00
      202396041   -5.319130421e-02   -9.562047198e-03   -6.536389351e+00    1.158849716e+01    0.000000000e+00    0.000000000e+00    0.000000000e+00    0.000000000e+00
      205328592   -5.322783440e-02   -1.075546071e-02   -6.319430828e+00    1.163600731e+01    0.000000000e+00    0.000000000e+00    0.000000000e+00    0.000000000e+00
      208261144   -5.161279812e-02   -1.159355510e-02   -6.114275455e+00    1.168738842e+01    0.000000000e+00    0.000000000e+00    0.000000000e+00    0.000000000e+00
      211193695   -5.106803030e-02   -1.349555422e-02   -5.930063725e+00    1.172788525e+01    0.000000000e+00    0.000000000e+00    0.000000000e+00    0.000000000e+00
      214126246   -5.051046237e-02   -1.451992989e-02   -5.714620113e+00    1.176561356e+01    0.000000000e+00    0.000000000e+00    0.000000000e+00    0.000000000e+00
      217058798   -4.958004877e-02   -1.664195769e-02   -5.548058510e+00    1.179719162e+01    0.000000000e+00    0.000000000e+00    0.000000000e+00    0.000000000e+00
      219991349   -4.901661724e-02   -1.698211022e-02   -5.316134930e+00    1.179316139e+01    0.000000000e+00    0.000000000e+00    0.000000000e+00    0.000000000e+00
      222923900   -4.884520918e-02   -1.834394410e-02   -5.157328606e+00    1.183129406e+01    0.000000000e+00    0.000000000e+00    0.000000000e+00    0.000000000e+00
      225856452   -4.859481752e-02   -2.127261832e-02   -5.009608746e+00    1.181254101e+01    0.000000000e+00    0.000000000e+00    0.000000000e+00    0.000000000e+00
      228789003   -4.871312156e-02   -2.270609140e-02   -4.835539818e+00    1.190126801e+01    0.000000000e+00    0.000000000e+00    0.000000000e+00    0.000000000e+00
      231721554   -4.904397950e-02   -2.566607855e-02   -4.683475018e+00    1.191908264e+01    0.000000000e+00    0.000000000e+00    0.000000000e+00    0.000000000e+00
      234654106   -4.974678531e-02   -2.884189226e-02   -4.524230957e+00    1.190228271e+01    0.000000000e+00    0.000000000e+00    0.000000000e+00    0.000000000e+00
      237586657   -5.140391365e-02   -3.078071028e-02   -4.339010715e+00    1.188195801e+01    0.000000000e+00    0.000000000e+00    0.000000000e+00    0.000000000e+00
      240519208   -5.279577523e-02   -3.405589238e-02   -4.192748070e+00    1.186870384e+01    0.000000000e+00    0.000000000e+00    0.000000000e+00    0.000000000e+00
      243451760   -5.453506485e-02   -3.532544896e-02   -4.065041542e+00    1.186345196e+01    0.000000000e+00    0.000000000e+00    0.000000000e+00    0.000000000e+00
      246384311   -5.670999363e-02   -3.711703047e-02   -3.929074049e+00    1.189006615e+01    0.000000000e+00    0.000000000e+00    0.000000000e+00    0.000000000e+00
      249316862   -5.922946334e-02   -3.876653686e-02   -3.836503506e+00    1.190867710e+01    0.000000000e+00    0.000000000e+00    0.000000000e+00    0.000000000e+00
      252249413   -6.216362491e-02   -3.974702954e-02   -3.677479744e+00    1.192945004e+01    0.000000000e+00    0.000000000e+00    0.000000000e+00    0.000000000e+00
      255181965   -6.443327665e-02   -4.115989804e-02   -3.544916153e+00    1.197263145e+01    0.000000000e+00    0.000000000e+00    0.000000000e+00    0.000000000e+00
      258114516   -6.727103889e-02   -4.107168317e-02   -3.406309605e+00    1.203626633e+01    0.000000000e+00    0.000000000e+00    0.000000000e+00    0.000000000e+00
      261047067   -7.054570317e-02   -4.174825177e-02   -3.289817095e+00    1.208180428e+01    0.000000000e+00    0.000000000e+00    0.000000000e+00    0.000000000e+00
      263979619   -7.281100005e-02   -4.201767966e-02   -3.140191317e+00    1.215469170e+01    0.000000000e+00    0.000000000e+00    0.000000000e+00    0.000000000e+00
      266912170   -7.564437389e-02   -4.110240191e-02   -2.984492302e+00    1.221391201e+01    0.000000000e+00    0.000000000e+00    0.000000000e+00    0.000000000e+00
      269844721   -7.865488529e-02   -3.949553147e-02   -2.813242912e+00    1.230145836e+01    0.000000000e+00    0.000000000e+00    0.000000000e+00    0.000000000e+00
      272777273   -8.083368093e-02   -3.852386773e-02   -2.665498495e+00    1.236716175e+01    0.000000000e+00    0.000000000e+00    0.000000000e+00    0.000000000e+00
      275709824   -8.275582641e-02   -3.685522079e-02   -2.478105545e+00    1.241337395e+01    0.000000000e+00    0.000000000e+00    0.000000000e+00    0.000000000e+00
      278642375   -8.524625003e-02   -3.495148197e-02   -2.284944773e+00    1.248486042e+01    0.000000000e+00    0.000000000e+00    0.000000000e+00    0.000000000e+00
      281574927   -8.646930754e-02   -3.315627575e-02   -2.083225012e+00    1.254741001e+01    0.000000000e+00    0.000000000e+00    0.000000000e+00    0.000000000e+00
      284507478   -8.754419535e-02   -3.201223537e-02   -1.887515783e+00    1.260428810e+01    0.000000000e+00    0.000000000e+00    0.000000000e+00    0.000000000e+00
      287440029   -8.928517252e-02   -3.175871819e-02   -1.707034349e+00    1.265656853e+01    0.000000000e+00    0.000000000e+00    0.000000000e+00    0.000000000e+00
      290372581   -9.072829783e-02   -2.901323140e-02   -1.494712710e+00    1.268560123e+01    0.000000000e+00    0.000000000e+00    0.000000000e+00    0.000000000e+00
      293305132   -9.152184427e-02   -2.771087177e-02   -1.259021759e+00    1.270932770e+01    0.000000000e+00    0.000000000e+00    0.000000000e+00    0.000000000e+00
      296237683   -9.245641530e-02   -2.570132725e-02   -1.071743727e+00    1.273761940e+01    0.000000000e+00    0.000000000e+00    0.000000000e+00    0.000000000e+00
      299170235   -9.299250692e-02   -2.432526462e-02   -8.811430335e-01    1.275285435e+01    0.000000000e+00    0.000000000e+00    0.000000000e+00    0.000000000e+00
      302102786   -9.371352196e-02   -2.307146229e-02   -6.395336390e-01    1.276272678e+01    0.000000000e+00    0.000000000e+00    0.000000000e+00    0.000000000e+00
      305035337   -9.349963069e-02   -2.127284184e-02   -4.650905132e-01    1.276562309e+01    0.000000000e+00    0.000000000e+00    0.000000000e+00    0.000000000e+00
      307967889   -9.355592728e-02   -2.049080841e-02   -2.180673629e-01    1.276346302e+01    0.000000000e+00    0.000000000e+00    0.000000000e+00    0.000000000e+00
      310900440   -9.313026071e-02   -1.943809353e-02    4.814704007e-04    1.275343418e+01    0.000000000e+00    0.000000000e+00    0.000000000e+00    0.000000000e+00
      313832991   -9.302535653e-02   -1.678841189e-02    2.048252672e-01    1.273692799e+01    0.000000000e+00    0.000000000e+00    0.000000000e+00    0.000000000e+00
      316765543   -9.251541644e-02   -1.566300914e-02    4.249463677e-01    1.271721649e+01    0.000000000e+00    0.000000000e+00    0.000000000e+00    0.000000000e+00
      319698094   -9.249556065e-02   -1.410911046e-02    6.131917238e-01    1.269352341e+01    0.000000000e+00    0.000000000e+00    0.000000000e+00    0.000000000e+00
      322630645   -9.209266305e-02   -1.402577385e-02    7.778741717e-01    1.267393494e+01    0.000000000e+00    0.000000000e+00    0.000000000e+00    0.000000000e+00
      325563196   -9.225535393e-02   -1.289266348e-02    1.046405435e+00    1.261240196e+01    0.000000000e+00    0.000000000e+00    0.000000000e+00    0.000000000e+00
      328495748   -9.218425304e-02   -1.219623256e-02    1.247646570e+00    1.259177780e+01    0.000000000e+00    0.000000000e+00    0.000000000e+00    0.000000000e+00
      331428299   -9.165242314e-02   -1.157779712e-02    1.419957995e+00    1.257816029e+01    0.000000000e+00    0.000000000e+00    0.000000000e+00    0.000000000e+00
      334360850   -9.117198735e-02   -1.091270708e-02    1.636412978e+00    1.251283836e+01    0.000000000e+00    0.000000000e+00    0.000000000e+00    0.000000000e+00
      337293402   -9.130220115e-02   -9.993775748e-03    1.832700849e+00    1.245277405e+01    0.000000000e+00    0.000000000e+00    0.000000000e+00    0.000000000e+00
