! NanoVNA-App
! Date: 2021-06-09 16:33:55
! Start: 2.25GHz Stop: 2.65GHz Points: 1024
! S-Parameter data: F S11 S21 S12 S22
# Hz S RI R 50
!     Frequency           S11_Real           S11_Imag           S21_Real           S21_Imag           S12_Real           S12_Imag           S22_Real           S22_Imag
     2250000000   -6.268100142e-01    5.713506341e-01   -1.340094209e-02    2.820267342e-02    0.000000000e+00    0.000000000e+00    0.000000000e+00    0.000000000e+00
     2250391007   -6.166398525e-01    5.839025378e-01   -1.305171661e-02    2.833850123e-02    0.000000000e+00    0.000000000e+00    0.000000000e+00    0.000000000e+00
     2250782014   -6.135896444e-01    5.863025188e-01   -1.320665237e-02    2.866826020e-02    0.000000000e+00    0.000000000e+00    0.000000000e+00    0.000000000e+00
     2251173021   -6.071699262e-01    5.921058059e-01   -1.240763627e-02    2.866147645e-02    0.000000000e+00    0.000000000e+00    0.000000000e+00    0.000000000e+00
     2251564027   -6.025649905e-01    5.944383144e-01   -1.248973981e-02    2.876969799e-02    0.000000000e+00    0.000000000e+00    0.000000000e+00    0.000000000e+00
     2251955034   -6.009098887e-01    5.935453176e-01   -1.215480361e-02    2.899488993e-02    0.000000000e+00    0.000000000e+00    0.000000000e+00    0.000000000e+00
     2252346041   -5.902847052e-01    6.040447950e-01   -1.148601435e-02    2.876865864e-02    0.000000000e+00    0.000000000e+00    0.000000000e+00    0.000000000e+00
     2252737048   -5.823369622e-01    6.079349518e-01   -1.136009023e-02    2.922916599e-02    0.000000000e+00    0.000000000e+00    0.000000000e+00    0.000000000e+00
     2253128055   -5.782256126e-01    6.108863354e-01   -1.108615287e-02    2.900165133e-02    0.000000000e+00    0.000000000e+00    0.000000000e+00    0.000000000e+00
     2253519062   -5.727271438e-01    6.180605292e-01   -1.120223012e-02    2.894977666e-02    0.000000000e+00    0.000000000e+00    0.000000000e+00    0.000000000e+00
     2253910068   -5.677154064e-01    6.221864223e-01   -1.101699751e-02    2.884684317e-02    0.000000000e+00    0.000000000e+00    0.000000000e+00    0.000000000e+00
     2254301075   -5.658408403e-01    6.276987791e-01   -1.055867877e-02    2.919805981e-02    0.000000000e+00    0.000000000e+00    0.000000000e+00    0.000000000e+00
     2254692082   -5.559185147e-01    6.356924772e-01   -1.061521564e-02    2.873820066e-02    0.000000000e+00    0.000000000e+00    0.000000000e+00    0.000000000e+00
     2255083089   -5.557267666e-01    6.354061961e-01   -1.097095851e-02    2.890625596e-02    0.000000000e+00    0.000000000e+00    0.000000000e+00    0.000000000e+00
     2255474096   -5.468783379e-01    6.469261646e-01   -1.034942549e-02    2.898995206e-02    0.000000000e+00    0.000000000e+00    0.000000000e+00    0.000000000e+00
     2255865103   -5.370061398e-01    6.529225707e-01   -1.006353460e-02    2.881733142e-02    0.000000000e+00    0.000000000e+00    0.000000000e+00    0.000000000e+00
     2256256109   -5.323459506e-01    6.586066484e-01   -9.843554348e-03    2.897932567e-02    0.000000000e+00    0.000000000e+00    0.000000000e+00    0.000000000e+00
     2256647116   -5.307366848e-01    6.583024263e-01   -9.312563576e-03    2.912942879e-02    0.000000000e+00    0.000000000e+00    0.000000000e+00    0.000000000e+00
     2257038123   -5.149250031e-01    6.695007682e-01   -9.068313055e-03    2.918803878e-02    0.000000000e+00    0.000000000e+00    0.000000000e+00    0.000000000e+00
     2257429130   -5.235047936e-01    6.627759933e-01   -9.391266853e-03    2.901499346e-02    0.000000000e+00    0.000000000e+00    0.000000000e+00    0.000000000e+00
     2257820137   -5.035117865e-01    6.755610704e-01   -8.631799370e-03    2.896818519e-02    0.000000000e+00    0.000000000e+00    0.000000000e+00    0.000000000e+00
     2258211144   -4.966024160e-01    6.803892851e-01   -8.498260751e-03    2.916720882e-02    0.000000000e+00    0.000000000e+00    0.000000000e+00    0.000000000e+00
     2258602151   -4.927894473e-01    6.824701428e-01   -8.391629905e-03    2.916467562e-02    0.000000000e+00    0.000000000e+00    0.000000000e+00    0.000000000e+00
     2258993157   -4.858266711e-01    6.872276068e-01   -7.872560062e-03    2.933255956e-02    0.000000000e+00    0.000000000e+00    0.000000000e+00    0.000000000e+00
     2259384164   -4.848128855e-01    6.896998882e-01   -8.110803552e-03    2.941063978e-02    0.000000000e+00    0.000000000e+00    0.000000000e+00    0.000000000e+00
     2259775171   -4.763325453e-01    6.958929300e-01   -7.734083571e-03    2.941234410e-02    0.000000000e+00    0.000000000e+00    0.000000000e+00    0.000000000e+00
     2260166178   -4.627740979e-01    7.050268650e-01   -7.143323775e-03    2.940118127e-02    0.000000000e+00    0.000000000e+00    0.000000000e+00    0.000000000e+00
     2260557185   -4.645179510e-01    7.075663805e-01   -7.508436218e-03    2.928305790e-02    0.000000000e+00    0.000000000e+00    0.000000000e+00    0.000000000e+00
     2260948192   -4.539318085e-01    7.156474590e-01   -6.784046534e-03    2.932549082e-02    0.000000000e+00    0.000000000e+00    0.000000000e+00    0.000000000e+00
     2261339198   -4.495759904e-01    7.163389921e-01   -7.373176515e-03    2.941232547e-02    0.000000000e+00    0.000000000e+00    0.000000000e+00    0.000000000e+00
     2261730205   -4.380179644e-01    7.255777717e-01   -6.170103326e-03    2.960534394e-02    0.000000000e+00    0.000000000e+00    0.000000000e+00    0.000000000e+00
     2262121212   -4.386592209e-01    7.250574827e-01   -6.468764972e-03    2.932338975e-02    0.000000000e+00    0.000000000e+00    0.000000000e+00    0.000000000e+00
     2262512219   -4.262816608e-01    7.325273156e-01   -6.175243296e-03    2.935013361e-02    0.000000000e+00    0.000000000e+00    0.000000000e+00    0.000000000e+00
     2262903226   -4.258157313e-01    7.335062623e-01   -6.460372359e-03    2.948844992e-02    0.000000000e+00    0.000000000e+00    0.000000000e+00    0.000000000e+00
     2263294233   -4.156773984e-01    7.389442921e-01   -6.173011847e-03    2.939594723e-02    0.000000000e+00    0.000000000e+00    0.000000000e+00    0.000000000e+00
     2263685239   -4.122878611e-01    7.413927317e-01   -5.793174263e-03    2.903386205e-02    0.000000000e+00    0.000000000e+00    0.000000000e+00    0.000000000e+00
     2264076246   -4.006189108e-01    7.470349669e-01   -5.626225844e-03    2.916611359e-02    0.000000000e+00    0.000000000e+00    0.000000000e+00    0.000000000e+00
     2264467253   -3.910773695e-01    7.534561753e-01   -5.550053902e-03    2.911079302e-02    0.000000000e+00    0.000000000e+00    0.000000000e+00    0.000000000e+00
     2264858260   -3.941965401e-01    7.502607703e-01   -5.693621933e-03    2.930655330e-02    0.000000000e+00    0.000000000e+00    0.000000000e+00    0.000000000e+00
     2265249267   -3.720810413e-01    7.611874938e-01   -4.809410311e-03    2.916098945e-02    0.000000000e+00    0.000000000e+00    0.000000000e+00    0.000000000e+00
     2265640274   -3.734910488e-01    7.612334490e-01   -5.341738928e-03    2.946269698e-02    0.000000000e+00    0.000000000e+00    0.000000000e+00    0.000000000e+00
     2266031281   -3.649121225e-01    7.639265656e-01   -4.904125817e-03    2.927165478e-02    0.000000000e+00    0.000000000e+00    0.000000000e+00    0.000000000e+00
     2266422287   -3.522094190e-01    7.687940598e-01   -4.853780381e-03    2.924231812e-02    0.000000000e+00    0.000000000e+00    0.000000000e+00    0.000000000e+00
     2266813294   -3.454078138e-01    7.730178237e-01   -4.225111566e-03    2.931947261e-02    0.000000000e+00    0.000000000e+00    0.000000000e+00    0.000000000e+00
     2267204301   -3.489736915e-01    7.734081149e-01   -4.559956957e-03    2.889759094e-02    0.000000000e+00    0.000000000e+00    0.000000000e+00    0.000000000e+00
     2267595308   -3.300704062e-01    7.804011703e-01   -4.431862384e-03    2.956482396e-02    0.000000000e+00    0.000000000e+00    0.000000000e+00    0.000000000e+00
     2267986315   -3.284270465e-01    7.825612426e-01   -3.480253974e-03    2.957024798e-02    0.000000000e+00    0.000000000e+00    0.000000000e+00    0.000000000e+00
     2268377322   -3.258771598e-01    7.817748785e-01   -4.131802358e-03    2.899220027e-02    0.000000000e+00    0.000000000e+00    0.000000000e+00    0.000000000e+00
     2268768328   -3.135448396e-01    7.887251377e-01   -3.672000021e-03    2.958399616e-02    0.000000000e+00    0.000000000e+00    0.000000000e+00    0.000000000e+00
     2269159335   -3.092931807e-01    7.898478508e-01   -3.614517394e-03    2.937633730e-02    0.000000000e+00    0.000000000e+00    0.000000000e+00    0.000000000e+00
     2269550342   -3.053837121e-01    7.943070531e-01   -3.294220194e-03    2.904476225e-02    0.000000000e+00    0.000000000e+00    0.000000000e+00    0.000000000e+00
     2269941349   -2.872564495e-01    7.998173237e-01   -2.972591668e-03    2.916674688e-02    0.000000000e+00    0.000000000e+00    0.000000000e+00    0.000000000e+00
     2270332356   -2.897917628e-01    7.992050648e-01   -3.509393195e-03    2.920854278e-02    0.000000000e+00    0.000000000e+00    0.000000000e+00    0.000000000e+00
     2270723363   -2.764024138e-01    8.044602871e-01   -2.875843085e-03    2.954116091e-02    0.000000000e+00    0.000000000e+00    0.000000000e+00    0.000000000e+00
     2271114370   -2.742418349e-01    8.074407578e-01   -2.883389127e-03    2.960756049e-02    0.000000000e+00    0.000000000e+00    0.000000000e+00    0.000000000e+00
     2271505376   -2.616993487e-01    8.078448176e-01   -2.516517648e-03    2.934808098e-02    0.000000000e+00    0.000000000e+00    0.000000000e+00    0.000000000e+00
     2271896383   -2.594999969e-01    8.094839454e-01   -2.406690735e-03    2.911355719e-02    0.000000000e+00    0.000000000e+00    0.000000000e+00    0.000000000e+00
     2272287390   -2.466597557e-01    8.127557635e-01   -2.103477251e-03    2.949686721e-02    0.000000000e+00    0.000000000e+00    0.000000000e+00    0.000000000e+00
     2272678397   -2.427264601e-01    8.148214817e-01   -2.189791063e-03    2.942535281e-02    0.000000000e+00    0.000000000e+00    0.000000000e+00    0.000000000e+00
     2273069404   -2.319298685e-01    8.169912100e-01   -2.374884905e-03    2.933779918e-02    0.000000000e+00    0.000000000e+00    0.000000000e+00    0.000000000e+00
     2273460411   -2.225033492e-01    8.171260953e-01   -1.593738096e-03    2.919284627e-02    0.000000000e+00    0.000000000e+00    0.000000000e+00    0.000000000e+00
     2273851417   -2.151017338e-01    8.175666332e-01   -2.042074222e-03    2.938784845e-02    0.000000000e+00    0.000000000e+00    0.000000000e+00    0.000000000e+00
     2274242424   -2.094087750e-01    8.213301897e-01   -1.498619793e-03    2.927833237e-02    0.000000000e+00    0.000000000e+00    0.000000000e+00    0.000000000e+00
     2274633431   -1.990934610e-01    8.235469460e-01   -9.966409998e-04    2.925216220e-02    0.000000000e+00    0.000000000e+00    0.000000000e+00    0.000000000e+00
     2275024438   -1.922520697e-01    8.266826868e-01   -1.457687467e-03    2.960502915e-02    0.000000000e+00    0.000000000e+00    0.000000000e+00    0.000000000e+00
     2275415445   -1.881400347e-01    8.262118101e-01   -1.379581401e-03    2.959469333e-02    0.000000000e+00    0.000000000e+00    0.000000000e+00    0.000000000e+00
     2275806452   -1.788858473e-01    8.295104504e-01   -1.690323581e-03    2.918080799e-02    0.000000000e+00    0.000000000e+00    0.000000000e+00    0.000000000e+00
     2276197458   -1.706729829e-01    8.313868642e-01   -1.060230890e-03    2.906408720e-02    0.000000000e+00    0.000000000e+00    0.000000000e+00    0.000000000e+00
     2276588465   -1.624229252e-01    8.342664242e-01   -7.690912462e-04    2.949629910e-02    0.000000000e+00    0.000000000e+00    0.000000000e+00    0.000000000e+00
     2276979472   -1.500696838e-01    8.352742791e-01   -5.639736191e-04    2.892160416e-02    0.000000000e+00    0.000000000e+00    0.000000000e+00    0.000000000e+00
     2277370479   -1.610675454e-01    8.349084258e-01   -7.778271683e-04    2.937915176e-02    0.000000000e+00    0.000000000e+00    0.000000000e+00    0.000000000e+00
     2277761486   -1.426906735e-01    8.380442262e-01   -2.899807878e-04    2.939727902e-02    0.000000000e+00    0.000000000e+00    0.000000000e+00    0.000000000e+00
     2278152493   -1.367727965e-01    8.402292728e-01   -2.841009118e-04    2.918355912e-02    0.000000000e+00    0.000000000e+00    0.000000000e+00    0.000000000e+00
     2278543500   -1.275027245e-01    8.417769074e-01   -1.314597321e-04    2.919659950e-02    0.000000000e+00    0.000000000e+00    0.000000000e+00    0.000000000e+00
     2278934506   -1.158586293e-01    8.431132436e-01    2.849448065e-04    2.949930727e-02    0.000000000e+00    0.000000000e+00    0.000000000e+00    0.000000000e+00
     2279325513   -1.113084704e-01    8.449425697e-01    2.321348147e-04    2.943065576e-02    0.000000000e+00    0.000000000e+00    0.000000000e+00    0.000000000e+00
     2279716520   -1.050389931e-01    8.446968794e-01    4.006981180e-05    2.940767258e-02    0.000000000e+00    0.000000000e+00    0.000000000e+00    0.000000000e+00
     2280107527   -8.420681953e-02    8.435918689e-01    7.351087988e-04    2.912730351e-02    0.000000000e+00    0.000000000e+00    0.000000000e+00    0.000000000e+00
     2280498534   -8.983054757e-02    8.468977809e-01    5.392912863e-05    2.903016843e-02    0.000000000e+00    0.000000000e+00    0.000000000e+00    0.000000000e+00
     2280889541   -7.242154330e-02    8.467891216e-01    1.021804754e-03    2.953401953e-02    0.000000000e+00    0.000000000e+00    0.000000000e+00    0.000000000e+00
     2281280547   -7.148405910e-02    8.467460275e-01    8.093239740e-04    2.943511121e-02    0.000000000e+00    0.000000000e+00    0.000000000e+00    0.000000000e+00
     2281671554   -5.937412009e-02    8.470218182e-01    9.243572713e-04    2.917154878e-02    0.000000000e+00    0.000000000e+00    0.000000000e+00    0.000000000e+00
     2282062561   -4.307048395e-02    8.500893116e-01    8.023728151e-04    2.935269289e-02    0.000000000e+00    0.000000000e+00    0.000000000e+00    0.000000000e+00
     2282453568   -4.930772260e-02    8.481951356e-01    1.072825515e-03    2.955155075e-02    0.000000000e+00    0.000000000e+00    0.000000000e+00    0.000000000e+00
     2282844575   -3.304639459e-02    8.497633338e-01    8.617799031e-04    2.898522839e-02    0.000000000e+00    0.000000000e+00    0.000000000e+00    0.000000000e+00
     2283235582   -2.023585513e-02    8.473165631e-01    1.294208458e-03    2.925583906e-02    0.000000000e+00    0.000000000e+00    0.000000000e+00    0.000000000e+00
     2283626588   -2.411267348e-02    8.504848480e-01    1.599272597e-03    2.942377515e-02    0.000000000e+00    0.000000000e+00    0.000000000e+00    0.000000000e+00
     2284017595   -1.860570349e-02    8.492242098e-01    1.065399614e-03    2.918929793e-02    0.000000000e+00    0.000000000e+00    0.000000000e+00    0.000000000e+00
     2284408602   -1.032073423e-02    8.483466506e-01    1.303082798e-03    2.941212989e-02    0.000000000e+00    0.000000000e+00    0.000000000e+00    0.000000000e+00
     2284799609    3.132409183e-03    8.475987911e-01    1.240347163e-03    2.959906124e-02    0.000000000e+00    0.000000000e+00    0.000000000e+00    0.000000000e+00
     2285190616    3.485416295e-03    8.466432095e-01    1.594446483e-03    2.919963561e-02    0.000000000e+00    0.000000000e+00    0.000000000e+00    0.000000000e+00
     2285581623    1.530604344e-02    8.476085663e-01    1.624092110e-03    2.925015986e-02    0.000000000e+00    0.000000000e+00    0.000000000e+00    0.000000000e+00
     2285972630    1.859743893e-02    8.464197516e-01    2.218365669e-03    2.950979955e-02    0.000000000e+00    0.000000000e+00    0.000000000e+00    0.000000000e+00
     2286363636    2.125999704e-02    8.484252691e-01    2.114318544e-03    2.939134836e-02    0.000000000e+00    0.000000000e+00    0.000000000e+00    0.000000000e+00
     2286754643    4.106923193e-02    8.454433084e-01    2.112603746e-03    2.948193625e-02    0.000000000e+00    0.000000000e+00    0.000000000e+00    0.000000000e+00
     2287145650    4.637111351e-02    8.469313979e-01    2.506105695e-03    2.943102270e-02    0.000000000e+00    0.000000000e+00    0.000000000e+00    0.000000000e+00
     2287536657    5.483539030e-02    8.470382094e-01    2.335624071e-03    2.944304235e-02    0.000000000e+00    0.000000000e+00    0.000000000e+00    0.000000000e+00
     2287927664    6.844473630e-02    8.455286622e-01    2.735885326e-03    2.953732200e-02    0.000000000e+00    0.000000000e+00    0.000000000e+00    0.000000000e+00
     2288318671    6.311801076e-02    8.453342915e-01    2.179364441e-03    2.953813411e-02    0.000000000e+00    0.000000000e+00    0.000000000e+00    0.000000000e+00
     2288709677    7.804539055e-02    8.441646695e-01    3.018453019e-03    2.973725088e-02    0.000000000e+00    0.000000000e+00    0.000000000e+00    0.000000000e+00
     2289100684    9.172945470e-02    8.420174718e-01    3.006963525e-03    2.972936444e-02    0.000000000e+00    0.000000000e+00    0.000000000e+00    0.000000000e+00
     2289491691    9.050391614e-02    8.460199833e-01    2.697285265e-03    2.985253930e-02    0.000000000e+00    0.000000000e+00    0.000000000e+00    0.000000000e+00
     2289882698    9.868747741e-02    8.448414803e-01    3.200493287e-03    2.997560427e-02    0.000000000e+00    0.000000000e+00    0.000000000e+00    0.000000000e+00
     2290273705    1.005254164e-01    8.453913927e-01    2.609424526e-03    2.997408435e-02    0.000000000e+00    0.000000000e+00    0.000000000e+00    0.000000000e+00
     2290664712    1.191523969e-01    8.408526182e-01    2.917348407e-03    3.015730903e-02    0.000000000e+00    0.000000000e+00    0.000000000e+00    0.000000000e+00
     2291055718    1.277829409e-01    8.387417197e-01    3.231657203e-03    3.017005883e-02    0.000000000e+00    0.000000000e+00    0.000000000e+00    0.000000000e+00
     2291446725    1.284527630e-01    8.408363461e-01    3.339747665e-03    3.014924936e-02    0.000000000e+00    0.000000000e+00    0.000000000e+00    0.000000000e+00
     2291837732    1.342506707e-01    8.407945037e-01    3.679148620e-03    3.007910214e-02    0.000000000e+00    0.000000000e+00    0.000000000e+00    0.000000000e+00
     2292228739    1.506029814e-01    8.347520828e-01    3.777512815e-03    3.013512492e-02    0.000000000e+00    0.000000000e+00    0.000000000e+00    0.000000000e+00
     2292619746    1.496736407e-01    8.354846239e-01    3.356844885e-03    3.022846766e-02    0.000000000e+00    0.000000000e+00    0.000000000e+00    0.000000000e+00
     2293010753    1.559997499e-01    8.384770751e-01    3.564525628e-03    3.009272553e-02    0.000000000e+00    0.000000000e+00    0.000000000e+00    0.000000000e+00
     2293401760    1.767393947e-01    8.318458796e-01    4.098498728e-03    3.004178777e-02    0.000000000e+00    0.000000000e+00    0.000000000e+00    0.000000000e+00
     2293792766    1.683708727e-01    8.352233171e-01    3.797948360e-03    2.998612262e-02    0.000000000e+00    0.000000000e+00    0.000000000e+00    0.000000000e+00
     2294183773    1.738380343e-01    8.343975544e-01    3.862861544e-03    3.005373292e-02    0.000000000e+00    0.000000000e+00    0.000000000e+00    0.000000000e+00
     2294574780    1.865507066e-01    8.292632699e-01    3.878296353e-03    3.033206426e-02    0.000000000e+00    0.000000000e+00    0.000000000e+00    0.000000000e+00
     2294965787    1.985583156e-01    8.251951933e-01    4.261159338e-03    3.045727126e-02    0.000000000e+00    0.000000000e+00    0.000000000e+00    0.000000000e+00
