! NanoVNA-App
! Date: 2021-06-09 16:33:55
! Start: 2.4498GHz Stop: 2.4503GHz Points: 51
! S-Parameter data: F S11 S21 S12 S22
# Hz S RI R 50
!     Frequency           S11_Real           S11_Imag           S21_Real           S21_Imag           S12_Real           S12_Imag           S22_Real           S22_Imag
     2449750000    1.670109341e-03   -1.494524479e-01   -1.570519060e-03    4.165312566e-04    0.000000000e+00    0.000000000e+00    0.000000000e+00    0.000000000e+00
     2449760000    1.836234122e-03   -1.494190097e-01   -1.573994406e-03    4.187346203e-04    0.000000000e+00    0.000000000e+00    0.000000000e+00    0.000000000e+00
     2449770000    1.519697369e-03   -1.492287517e-01   -1.576861716e-03    4.188884632e-04    0.000000000e+00    0.000000000e+00    0.000000000e+00    0.000000000e+00
     2449780000    1.522134990e-03   -1.490973979e-01   -1.578399679e-03    4.169221211e-04    0.000000000e+00    0.000000000e+00    0.000000000e+00    0.000000000e+00
     2449790000    1.665500225e-03   -1.490480453e-01   -1.582689583e-03    4.201022675e-04    0.000000000e+00    0.000000000e+00    0.000000000e+00    0.000000000e+00
     2449800000    1.379208406e-03   -1.489694417e-01   -1.580361044e-03    4.212635395e-04    0.000000000e+00    0.000000000e+00    0.000000000e+00    0.000000000e+00
     2449810000    1.228674082e-03   -1.489449441e-01   -1.585235354e-03    4.248181649e-04    0.000000000e+00    0.000000000e+00    0.000000000e+00    0.000000000e+00
     2449820000    1.432185061e-03   -1.493242532e-01   -1.587518724e-03    4.248826299e-04    0.000000000e+00    0.000000000e+00    0.000000000e+00    0.000000000e+00
     2449830000    1.440692693e-03   -1.494235694e-01   -1.589531661e-03    4.286184558e-04    0.000000000e+00    0.000000000e+00    0.000000000e+00    0.000000000e+00
     2449840000    1.446848153e-03   -1.491203308e-01   -1.588830957e-03    4.272882070e-04    0.000000000e+00    0.000000000e+00    0.000000000e+00    0.000000000e+00
     2449850000    1.356491586e-03   -1.488953084e-01   -1.591747743e-03    4.263097071e-04    0.000000000e+00    0.000000000e+00    0.000000000e+00    0.000000000e+00
     2449860000    1.486446010e-03   -1.492507160e-01   -1.595869195e-03    4.273153027e-04    0.000000000e+00    0.000000000e+00    0.000000000e+00    0.000000000e+00
     2449870000    1.583515783e-03   -1.491274834e-01   -1.595247537e-03    4.277220287e-04    0.000000000e+00    0.000000000e+00    0.000000000e+00    0.000000000e+00
     2449880000    1.338931499e-03   -1.490842253e-01   -1.596072922e-03    4.311845696e-04    0.000000000e+00    0.000000000e+00    0.000000000e+00    0.000000000e+00
     2449890000    1.530440408e-03   -1.492020637e-01   -1.601355034e-03    4.351317766e-04    0.000000000e+00    0.000000000e+00    0.000000000e+00    0.000000000e+00
     2449900000    1.180701423e-03   -1.493683606e-01   -1.604696503e-03    4.365233763e-04    0.000000000e+00    0.000000000e+00    0.000000000e+00    0.000000000e+00
     2449910000    9.966011858e-04   -1.490028799e-01   -1.605083700e-03    4.387378867e-04    0.000000000e+00    0.000000000e+00    0.000000000e+00    0.000000000e+00
     2449920000    1.093319966e-03   -1.490821391e-01   -1.607758226e-03    4.385191132e-04    0.000000000e+00    0.000000000e+00    0.000000000e+00    0.000000000e+00
     2449930000    1.161806635e-03   -1.488040835e-01   -1.613272354e-03    4.422122147e-04    0.000000000e+00    0.000000000e+00    0.000000000e+00    0.000000000e+00
     2449940000    8.516851813e-04   -1.493170410e-01   -1.609177794e-03    4.439693876e-04    0.000000000e+00    0.000000000e+00    0.000000000e+00    0.000000000e+00
     2449950000    1.321040560e-03   -1.494376361e-01   -1.610106789e-03    4.432064015e-04    0.000000000e+00    0.000000000e+00    0.000000000e+00    0.000000000e+00
     2449960000    1.450048760e-03   -1.491773278e-01   -1.615423826e-03    4.449742264e-04    0.000000000e+00    0.000000000e+00    0.000000000e+00    0.000000000e+00
     2449970000    1.182873035e-03   -1.491012126e-01   -1.616279129e-03    4.433543654e-04    0.000000000e+00    0.000000000e+00    0.000000000e+00    0.000000000e+00
     2449980000    1.179379178e-03   -1.491679996e-01   -1.619018964e-03    4.473959561e-04    0.000000000e+00    0.000000000e+00    0.000000000e+00    0.000000000e+00
     2449990000    1.021221629e-03   -1.491282880e-01   -1.619294984e-03    4.461680946e-04    0.000000000e+00    0.000000000e+00    0.000000000e+00    0.000000000e+00
     2450000000    1.032561413e-03   -1.491234452e-01   -1.621517236e-03    4.473603040e-04    0.000000000e+00    0.000000000e+00    0.000000000e+00    0.000000000e+00
     2450010000    1.132623758e-03   -1.491238922e-01   -1.623674994e-03    4.505756078e-04    0.000000000e+00    0.000000000e+00    0.000000000e+00    0.000000000e+00
     2450020000    1.169269322e-03   -1.490718871e-01   -1.625245903e-03    4.516553017e-04    0.000000000e+00    0.000000000e+00    0.000000000e+00    0.000000000e+00
     2450030000    1.196578960e-03   -1.491564214e-01   -1.629194012e-03    4.519585927e-04    0.000000000e+00    0.000000000e+00    0.000000000e+00    0.000000000e+00
     2450040000    1.015593996e-03   -1.487701535e-01   -1.634927583e-03    4.575737403e-04    0.000000000e+00    0.000000000e+00    0.000000000e+00    0.000000000e+00
     2450050000    7.595765055e-04   -1.487901807e-01   -1.630366081e-03    4.553789622e-04    0.000000000e+00    0.000000000e+00    0.000000000e+00    0.000000000e+00
     2450060000    1.042996533e-03   -1.491011232e-01   -1.634722808e-03    4.568716977e-04    0.000000000e+00    0.000000000e+00    0.000000000e+00    0.000000000e+00
     2450070000    1.128624310e-03   -1.490881294e-01   -1.639247872e-03    4.600758839e-04    0.000000000e+00    0.000000000e+00    0.000000000e+00    0.000000000e+00
     2450080000    7.563743857e-04   -1.491739750e-01   -1.636575442e-03    4.642463173e-04    0.000000000e+00    0.000000000e+00    0.000000000e+00    0.000000000e+00
     2450090000    1.025962178e-03   -1.488727927e-01   -1.642443705e-03    4.619465035e-04    0.000000000e+00    0.000000000e+00    0.000000000e+00    0.000000000e+00
     2450100000    8.978513069e-04   -1.492067575e-01   -1.641128561e-03    4.645004519e-04    0.000000000e+00    0.000000000e+00    0.000000000e+00    0.000000000e+00
     2450110000    1.096939202e-03   -1.489324868e-01   -1.648452715e-03    4.676744575e-04    0.000000000e+00    0.000000000e+00    0.000000000e+00    0.000000000e+00
     2450120000    1.055618515e-03   -1.486806720e-01   -1.645240234e-03    4.655658850e-04    0.000000000e+00    0.000000000e+00    0.000000000e+00    0.000000000e+00
     2450130000    1.020092866e-03   -1.491123885e-01   -1.649390091e-03    4.653793876e-04    0.000000000e+00    0.000000000e+00    0.000000000e+00    0.000000000e+00
     2450140000    7.418377209e-04   -1.489134431e-01   -1.650189748e-03    4.681413993e-04    0.000000000e+00    0.000000000e+00    0.000000000e+00    0.000000000e+00
     2450150000    1.083818963e-03   -1.491946280e-01   -1.652812585e-03    4.717815609e-04    0.000000000e+00    0.000000000e+00    0.000000000e+00    0.000000000e+00
     2450160000    6.317341467e-04   -1.488215029e-01   -1.657362911e-03    4.705548927e-04    0.000000000e+00    0.000000000e+00    0.000000000e+00    0.000000000e+00
     2450170000    1.876585011e-04   -1.489206105e-01   -1.655731350e-03    4.730934161e-04    0.000000000e+00    0.000000000e+00    0.000000000e+00    0.000000000e+00
     2450180000    6.325491122e-04   -1.490961313e-01   -1.662147930e-03    4.728185886e-04    0.000000000e+00    0.000000000e+00    0.000000000e+00    0.000000000e+00
     2450190000    8.232094697e-04   -1.490956843e-01   -1.662746072e-03    4.748063802e-04    0.000000000e+00    0.000000000e+00    0.000000000e+00    0.000000000e+00
     2450200000    3.119286848e-04   -1.491203308e-01   -1.658608322e-03    4.799103481e-04    0.000000000e+00    0.000000000e+00    0.000000000e+00    0.000000000e+00
     2450210000    8.697213489e-04   -1.489347816e-01   -1.668157754e-03    4.765806370e-04    0.000000000e+00    0.000000000e+00    0.000000000e+00    0.000000000e+00
     2450220000    2.296082093e-04   -1.487851143e-01   -1.665966120e-03    4.758243449e-04    0.000000000e+00    0.000000000e+00    0.000000000e+00    0.000000000e+00
     2450230000    1.130690216e-04   -1.490432024e-01   -1.666707452e-03    4.792066466e-04    0.000000000e+00    0.000000000e+00    0.000000000e+00    0.000000000e+00
     2450240000    7.324772741e-05   -1.489173323e-01   -1.669625286e-03    4.833401181e-04    0.000000000e+00    0.000000000e+00    0.000000000e+00    0.000000000e+00
     2450250000    2.288268734e-04   -1.497748345e-01   -1.668809447e-03    4.873012076e-04    0.000000000e+00    0.000000000e+00    0.000000000e+00    0.000000000e+00
